hour, t(sec), |V|1 (volts), |V|2 (volts), |I|1 (amps), |I|2 (amps)
0, 900.00000, 2454.57, 0, 13.7742, 13.7742
0, 1800.00000, 2454.58, 0, 13.774, 13.774
0, 2700.00000, 2458.35, 0, 12.3162, 12.3162
1, 0.00000, 2458.36, 0, 12.3157, 12.3157
1, 900.00000, 2458.36, 0, 12.3157, 12.3157
1, 1800.00000, 2467, 0, 11.3408, 11.3408
1, 2700.00000, 2467, 0, 11.3408, 11.3408
2, 0.00000, 2467, 0, 11.3408, 11.3408
2, 900.00000, 2467, 0, 11.3408, 11.3408
2, 1800.00000, 2467, 0, 11.3408, 11.3408
2, 2700.00000, 2466.44, 0, 11.0371, 11.0371
3, 0.00000, 2466.45, 0, 11.0369, 11.0369
3, 900.00000, 2466.45, 0, 11.0369, 11.0369
3, 1800.00000, 2469.36, 0, 10.564, 10.564
3, 2700.00000, 2469.36, 0, 10.5638, 10.5638
4, 0.00000, 2469.36, 0, 10.5638, 10.5638
4, 900.00000, 2469.36, 0, 10.5638, 10.5638
4, 1800.00000, 2469.36, 0, 10.5638, 10.5638
4, 2700.00000, 2468.51, 0, 10.5126, 10.5126
5, 0.00000, 2468.51, 0, 10.5128, 10.5128
5, 900.00000, 2468.51, 0, 10.5128, 10.5128
5, 1800.00000, 2467.51, 0, 10.9191, 10.9191
5, 2700.00000, 2467.49, 0, 10.9198, 10.9198
6, 0.00000, 2467.49, 0, 10.9198, 10.9198
6, 900.00000, 2467.49, 0, 10.9198, 10.9198
6, 1800.00000, 2467.49, 0, 10.9198, 10.9198
6, 2700.00000, 2462.47, 0, 11.9316, 11.9316
7, 0.00000, 2462.46, 0, 11.9319, 11.9319
7, 900.00000, 2462.46, 0, 11.9319, 11.9319
7, 1800.00000, 2455.41, 0, 13.6181, 13.6181
7, 2700.00000, 2455.41, 0, 13.6181, 13.6181
8, 0.00000, 2455.41, 0, 13.6181, 13.6181
8, 900.00000, 2455.41, 0, 13.6181, 13.6181
8, 1800.00000, 2455.41, 0, 13.6181, 13.6181
8, 2700.00000, 2448.1, 0, 15.1982, 15.1982
9, 0.00000, 2448.09, 0, 15.1988, 15.1988
9, 900.00000, 2448.09, 0, 15.1989, 15.1989
9, 1800.00000, 2444.86, 0, 16.0972, 16.0972
9, 2700.00000, 2444.87, 0, 16.0969, 16.0969
10, 0.00000, 2444.87, 0, 16.0969, 16.0969
10, 900.00000, 2444.87, 0, 16.0969, 16.0969
10, 1800.00000, 2444.87, 0, 16.0969, 16.0969
10, 2700.00000, 2455.76, 0, 17.1179, 17.1179
11, 0.00000, 2455.75, 0, 17.1182, 17.1182
11, 900.00000, 2455.75, 0, 17.1182, 17.1182
11, 1800.00000, 2451.63, 0, 18.0407, 18.0407
11, 2700.00000, 2451.63, 0, 18.0408, 18.0408
12, 0.00000, 2451.63, 0, 18.0408, 18.0408
12, 900.00000, 2451.63, 0, 18.0408, 18.0408
12, 1800.00000, 2451.63, 0, 18.0408, 18.0408
12, 2700.00000, 2452.32, 0, 17.9632, 17.9632
13, 0.00000, 2452.32, 0, 17.9628, 17.9628
13, 900.00000, 2452.32, 0, 17.9628, 17.9628
13, 1800.00000, 2451.83, 0, 17.8748, 17.8748
13, 2700.00000, 2451.83, 0, 17.8752, 17.8752
14, 0.00000, 2451.83, 0, 17.8752, 17.8752
14, 900.00000, 2451.83, 0, 17.8752, 17.8752
14, 1800.00000, 2451.83, 0, 17.8752, 17.8752
14, 2700.00000, 2452.19, 0, 18.0516, 18.0516
15, 0.00000, 2452.19, 0, 18.0513, 18.0513
15, 900.00000, 2452.19, 0, 18.0513, 18.0513
15, 1800.00000, 2450.66, 0, 18.2297, 18.2297
15, 2700.00000, 2450.65, 0, 18.2305, 18.2305
16, 0.00000, 2450.65, 0, 18.2305, 18.2305
16, 900.00000, 2450.65, 0, 18.2305, 18.2305
16, 1800.00000, 2450.65, 0, 18.2305, 18.2305
16, 2700.00000, 2450.39, 0, 18.2506, 18.2506
17, 0.00000, 2450.39, 0, 18.2507, 18.2507
17, 900.00000, 2450.39, 0, 18.2507, 18.2507
17, 1800.00000, 2454.55, 0, 17.4547, 17.4547
17, 2700.00000, 2454.55, 0, 17.4545, 17.4545
18, 0.00000, 2454.55, 0, 17.4545, 17.4545
18, 900.00000, 2454.55, 0, 17.4545, 17.4545
18, 1800.00000, 2454.55, 0, 17.4545, 17.4545
18, 2700.00000, 2456.05, 0, 17.0438, 17.0438
19, 0.00000, 2456.05, 0, 17.0433, 17.0433
19, 900.00000, 2456.05, 0, 17.0433, 17.0433
19, 1800.00000, 2457.82, 0, 16.6131, 16.6131
19, 2700.00000, 2457.83, 0, 16.6125, 16.6125
20, 0.00000, 2457.83, 0, 16.6124, 16.6124
20, 900.00000, 2457.83, 0, 16.6124, 16.6124
20, 1800.00000, 2457.83, 0, 16.6124, 16.6124
20, 2700.00000, 2460.67, 0, 15.9209, 15.9209
21, 0.00000, 2460.67, 0, 15.9208, 15.9208
21, 900.00000, 2460.67, 0, 15.9208, 15.9208
21, 1800.00000, 2460.67, 0, 15.9208, 15.9208
21, 2700.00000, 2460.67, 0, 15.9208, 15.9208
22, 0.00000, 2460.67, 0, 15.9208, 15.9208
22, 900.00000, 2460.67, 0, 15.9208, 15.9208
22, 1800.00000, 2460.67, 0, 15.9208, 15.9208
22, 2700.00000, 2464.67, 0, 15.0241, 15.0241
23, 0.00000, 2464.67, 0, 15.024, 15.024
23, 900.00000, 2464.67, 0, 15.024, 15.024
23, 1800.00000, 2470.68, 0, 13.6841, 13.6841
23, 2700.00000, 2470.67, 0, 13.6843, 13.6843
24, 0.00000, 2470.67, 0, 13.6843, 13.6843
24, 900.00000, 2470.67, 0, 13.6843, 13.6843
24, 1800.00000, 2470.67, 0, 13.6843, 13.6843
24, 2700.00000, 2474.49, 0, 12.2354, 12.2354
25, 0.00000, 2474.49, 0, 12.2354, 12.2354
25, 900.00000, 2474.49, 0, 12.2354, 12.2354
25, 1800.00000, 2483.45, 0, 11.2656, 11.2656
25, 2700.00000, 2483.44, 0, 11.2657, 11.2657
26, 0.00000, 2483.44, 0, 11.2657, 11.2657
26, 900.00000, 2483.44, 0, 11.2657, 11.2657
26, 1800.00000, 2483.44, 0, 11.2657, 11.2657
26, 2700.00000, 2482.89, 0, 10.964, 10.964
27, 0.00000, 2482.9, 0, 10.9637, 10.9637
27, 900.00000, 2482.9, 0, 10.9637, 10.9637
27, 1800.00000, 2485.81, 0, 10.4941, 10.4941
27, 2700.00000, 2485.82, 0, 10.4939, 10.4939
28, 0.00000, 2485.82, 0, 10.4939, 10.4939
28, 900.00000, 2485.82, 0, 10.4939, 10.4939
28, 1800.00000, 2485.82, 0, 10.4939, 10.4939
28, 2700.00000, 2484.98, 0, 10.443, 10.443
29, 0.00000, 2484.98, 0, 10.4431, 10.4431
29, 900.00000, 2484.98, 0, 10.4431, 10.4431
29, 1800.00000, 2483.97, 0, 10.8468, 10.8468
29, 2700.00000, 2483.95, 0, 10.8475, 10.8475
30, 0.00000, 2483.95, 0, 10.8475, 10.8475
30, 900.00000, 2483.95, 0, 10.8475, 10.8475
30, 1800.00000, 2483.95, 0, 10.8475, 10.8475
30, 2700.00000, 2478.91, 0, 11.8525, 11.8525
31, 0.00000, 2478.9, 0, 11.8528, 11.8528
31, 900.00000, 2478.9, 0, 11.8528, 11.8528
31, 1800.00000, 2471.84, 0, 13.5276, 13.5276
31, 2700.00000, 2471.84, 0, 13.5277, 13.5277
32, 0.00000, 2471.84, 0, 13.5277, 13.5277
32, 900.00000, 2471.84, 0, 13.5277, 13.5277
32, 1800.00000, 2471.84, 0, 13.5277, 13.5277
32, 2700.00000, 2464.51, 0, 15.097, 15.097
33, 0.00000, 2464.5, 0, 15.0976, 15.0976
33, 900.00000, 2464.5, 0, 15.0977, 15.0977
33, 1800.00000, 2461.26, 0, 15.9899, 15.9899
33, 2700.00000, 2461.27, 0, 15.9897, 15.9897
34, 0.00000, 2461.27, 0, 15.9897, 15.9897
34, 900.00000, 2461.27, 0, 15.9897, 15.9897
34, 1800.00000, 2461.27, 0, 15.9897, 15.9897
34, 2700.00000, 2455.76, 0, 17.1181, 17.1181
35, 0.00000, 2455.75, 0, 17.1182, 17.1182
35, 900.00000, 2455.75, 0, 17.1182, 17.1182
35, 1800.00000, 2451.63, 0, 18.0407, 18.0407
35, 2700.00000, 2451.63, 0, 18.0408, 18.0408
36, 0.00000, 2451.63, 0, 18.0408, 18.0408
36, 900.00000, 2451.63, 0, 18.0408, 18.0408
36, 1800.00000, 2451.63, 0, 18.0408, 18.0408
36, 2700.00000, 2452.32, 0, 17.9632, 17.9632
37, 0.00000, 2452.32, 0, 17.9628, 17.9628
37, 900.00000, 2452.32, 0, 17.9628, 17.9628
37, 1800.00000, 2451.83, 0, 17.8748, 17.8748
37, 2700.00000, 2451.83, 0, 17.8752, 17.8752
38, 0.00000, 2451.83, 0, 17.8752, 17.8752
38, 900.00000, 2451.83, 0, 17.8752, 17.8752
38, 1800.00000, 2451.83, 0, 17.8752, 17.8752
38, 2700.00000, 2452.19, 0, 18.0516, 18.0516
39, 0.00000, 2452.19, 0, 18.0513, 18.0513
39, 900.00000, 2452.19, 0, 18.0513, 18.0513
39, 1800.00000, 2450.66, 0, 18.2297, 18.2297
39, 2700.00000, 2450.65, 0, 18.2305, 18.2305
40, 0.00000, 2450.65, 0, 18.2305, 18.2305
40, 900.00000, 2450.65, 0, 18.2305, 18.2305
40, 1800.00000, 2450.65, 0, 18.2305, 18.2305
40, 2700.00000, 2450.39, 0, 18.2506, 18.2506
41, 0.00000, 2450.39, 0, 18.2507, 18.2507
41, 900.00000, 2450.39, 0, 18.2507, 18.2507
41, 1800.00000, 2454.55, 0, 17.4547, 17.4547
41, 2700.00000, 2454.55, 0, 17.4545, 17.4545
42, 0.00000, 2454.55, 0, 17.4545, 17.4545
42, 900.00000, 2454.55, 0, 17.4545, 17.4545
42, 1800.00000, 2454.55, 0, 17.4545, 17.4545
42, 2700.00000, 2456.05, 0, 17.0438, 17.0438
43, 0.00000, 2456.06, 0, 17.0433, 17.0433
43, 900.00000, 2456.06, 0, 17.0433, 17.0433
43, 1800.00000, 2457.82, 0, 16.6131, 16.6131
43, 2700.00000, 2457.83, 0, 16.6124, 16.6124
44, 0.00000, 2457.83, 0, 16.6124, 16.6124
44, 900.00000, 2457.83, 0, 16.6124, 16.6124
44, 1800.00000, 2457.83, 0, 16.6124, 16.6124
44, 2700.00000, 2460.67, 0, 15.9209, 15.9209
45, 0.00000, 2460.67, 0, 15.9208, 15.9208
45, 900.00000, 2460.67, 0, 15.9208, 15.9208
45, 1800.00000, 2460.67, 0, 15.9208, 15.9208
45, 2700.00000, 2460.67, 0, 15.9208, 15.9208
46, 0.00000, 2460.67, 0, 15.9208, 15.9208
46, 900.00000, 2460.67, 0, 15.9208, 15.9208
46, 1800.00000, 2460.67, 0, 15.9208, 15.9208
46, 2700.00000, 2464.67, 0, 15.024, 15.024
47, 0.00000, 2464.67, 0, 15.024, 15.024
47, 900.00000, 2464.67, 0, 15.024, 15.024
47, 1800.00000, 2470.68, 0, 13.6841, 13.6841
47, 2700.00000, 2470.68, 0, 13.6843, 13.6843
48, 0.00000, 2470.68, 0, 13.6843, 13.6843
