hour, t(sec), |V|1 (volts), |V|2 (volts), |I|1 (amps), |I|2 (amps)
0, 900.00000, 2358.43, 0, 14.3362, 14.3362
0, 1800.00000, 2358.44, 0, 14.3355, 14.3355
0, 2700.00000, 2360.75, 0, 12.8249, 12.8249
1, 0.00000, 2360.74, 0, 12.8249, 12.8249
1, 900.00000, 2360.74, 0, 12.825, 12.825
1, 1800.00000, 2370.69, 0, 11.8014, 11.8014
1, 2700.00000, 2370.69, 0, 11.8015, 11.8015
2, 0.00000, 2370.69, 0, 11.8015, 11.8015
2, 900.00000, 2370.69, 0, 11.8015, 11.8015
2, 1800.00000, 2370.69, 0, 11.8015, 11.8015
2, 2700.00000, 2369.34, 0, 11.4888, 11.4888
3, 0.00000, 2369.33, 0, 11.4893, 11.4893
3, 900.00000, 2369.33, 0, 11.4893, 11.4893
3, 1800.00000, 2372.38, 0, 10.9957, 10.9957
3, 2700.00000, 2372.38, 0, 10.9957, 10.9957
4, 0.00000, 2372.38, 0, 10.9957, 10.9957
4, 900.00000, 2372.38, 0, 10.9957, 10.9957
4, 1800.00000, 2372.38, 0, 10.9957, 10.9957
4, 2700.00000, 2371.12, 0, 10.9441, 10.9441
5, 0.00000, 2371.11, 0, 10.9446, 10.9446
5, 900.00000, 2371.11, 0, 10.9446, 10.9446
5, 1800.00000, 2370.52, 0, 11.3662, 11.3662
5, 2700.00000, 2370.53, 0, 11.3665, 11.3665
6, 0.00000, 2370.53, 0, 11.3665, 11.3665
6, 900.00000, 2370.53, 0, 11.3665, 11.3665
6, 1800.00000, 2370.53, 0, 11.3665, 11.3665
6, 2700.00000, 2365.6, 0, 12.4204, 12.4204
7, 0.00000, 2365.6, 0, 12.4205, 12.4205
7, 900.00000, 2365.6, 0, 12.4205, 12.4205
7, 1800.00000, 2359.2, 0, 14.1736, 14.1736
7, 2700.00000, 2359.2, 0, 14.1735, 14.1735
8, 0.00000, 2359.2, 0, 14.1735, 14.1735
8, 900.00000, 2359.2, 0, 14.1735, 14.1735
8, 1800.00000, 2359.2, 0, 14.1735, 14.1735
8, 2700.00000, 2352.18, 0, 15.8184, 15.8184
9, 0.00000, 2352.19, 0, 15.8186, 15.8186
9, 900.00000, 2352.19, 0, 15.8185, 15.8185
9, 1800.00000, 2349.44, 0, 16.7506, 16.7506
9, 2700.00000, 2349.44, 0, 16.7507, 16.7507
10, 0.00000, 2349.44, 0, 16.7507, 16.7507
10, 900.00000, 2349.44, 0, 16.7507, 16.7507
10, 1800.00000, 2349.44, 0, 16.7507, 16.7507
10, 2700.00000, 2360.03, 0, 17.8127, 17.8127
11, 0.00000, 2360.03, 0, 17.8125, 17.8125
11, 900.00000, 2360.03, 0, 17.8125, 17.8125
11, 1800.00000, 2356.1, 0, 18.772, 18.772
11, 2700.00000, 2356.1, 0, 18.7723, 18.7723
12, 0.00000, 2356.1, 0, 18.7723, 18.7723
12, 900.00000, 2356.1, 0, 18.7723, 18.7723
12, 1800.00000, 2356.1, 0, 18.7723, 18.7723
12, 2700.00000, 2356.88, 0, 18.6907, 18.6907
13, 0.00000, 2356.89, 0, 18.6902, 18.6902
13, 900.00000, 2356.89, 0, 18.6901, 18.6901
13, 1800.00000, 2356.04, 0, 18.6013, 18.6013
13, 2700.00000, 2356.04, 0, 18.602, 18.602
14, 0.00000, 2356.04, 0, 18.602, 18.602
14, 900.00000, 2356.04, 0, 18.602, 18.602
14, 1800.00000, 2356.04, 0, 18.602, 18.602
14, 2700.00000, 2356.87, 0, 18.7819, 18.7819
15, 0.00000, 2356.87, 0, 18.7813, 18.7813
15, 900.00000, 2356.87, 0, 18.7813, 18.7813
15, 1800.00000, 2355.12, 0, 18.9688, 18.9688
15, 2700.00000, 2355.1, 0, 18.9701, 18.9701
16, 0.00000, 2355.1, 0, 18.9702, 18.9702
16, 900.00000, 2355.1, 0, 18.9702, 18.9702
16, 1800.00000, 2355.1, 0, 18.9702, 18.9702
16, 2700.00000, 2354.84, 0, 18.9911, 18.9911
17, 0.00000, 2354.84, 0, 18.9913, 18.9913
17, 900.00000, 2354.84, 0, 18.9913, 18.9913
17, 1800.00000, 2359.15, 0, 18.1607, 18.1607
17, 2700.00000, 2359.15, 0, 18.1604, 18.1604
18, 0.00000, 2359.15, 0, 18.1604, 18.1604
18, 900.00000, 2359.15, 0, 18.1604, 18.1604
18, 1800.00000, 2359.15, 0, 18.1604, 18.1604
18, 2700.00000, 2360.51, 0, 17.7339, 17.7339
19, 0.00000, 2360.53, 0, 17.733, 17.733
19, 900.00000, 2360.53, 0, 17.733, 17.733
19, 1800.00000, 2362.16, 0, 17.2862, 17.2862
19, 2700.00000, 2362.18, 0, 17.2852, 17.2852
20, 0.00000, 2362.18, 0, 17.2852, 17.2852
20, 900.00000, 2362.18, 0, 17.2852, 17.2852
20, 1800.00000, 2362.18, 0, 17.2852, 17.2852
20, 2700.00000, 2364.74, 0, 16.5669, 16.5669
21, 0.00000, 2364.74, 0, 16.5667, 16.5667
21, 900.00000, 2364.74, 0, 16.5667, 16.5667
21, 1800.00000, 2364.74, 0, 16.5667, 16.5667
21, 2700.00000, 2364.74, 0, 16.5667, 16.5667
22, 0.00000, 2364.74, 0, 16.5667, 16.5667
22, 900.00000, 2364.74, 0, 16.5667, 16.5667
22, 1800.00000, 2364.74, 0, 16.5667, 16.5667
22, 2700.00000, 2368.52, 0, 15.6338, 15.6338
23, 0.00000, 2368.52, 0, 15.634, 15.634
23, 900.00000, 2368.52, 0, 15.634, 15.634
23, 1800.00000, 2374.14, 0, 14.2407, 14.2407
23, 2700.00000, 2374.14, 0, 14.2407, 14.2407
24, 0.00000, 2374.14, 0, 14.2407, 14.2407
24, 900.00000, 2374.14, 0, 14.2407, 14.2407
24, 1800.00000, 2374.14, 0, 14.2407, 14.2407
24, 2700.00000, 2376.53, 0, 12.7397, 12.7397
25, 0.00000, 2376.53, 0, 12.7397, 12.7397
25, 900.00000, 2376.53, 0, 12.7397, 12.7397
25, 1800.00000, 2385.89, 0, 11.7259, 11.7259
25, 2700.00000, 2385.89, 0, 11.7263, 11.7263
26, 0.00000, 2385.89, 0, 11.7263, 11.7263
26, 900.00000, 2385.89, 0, 11.7263, 11.7263
26, 1800.00000, 2385.89, 0, 11.7263, 11.7263
26, 2700.00000, 2384.56, 0, 11.4155, 11.4155
27, 0.00000, 2384.55, 0, 11.416, 11.416
27, 900.00000, 2384.55, 0, 11.416, 11.416
27, 1800.00000, 2387.58, 0, 10.9257, 10.9257
27, 2700.00000, 2387.58, 0, 10.9257, 10.9257
28, 0.00000, 2387.58, 0, 10.9257, 10.9257
28, 900.00000, 2387.58, 0, 10.9257, 10.9257
28, 1800.00000, 2387.58, 0, 10.9257, 10.9257
28, 2700.00000, 2386.33, 0, 10.8744, 10.8744
29, 0.00000, 2386.32, 0, 10.8748, 10.8748
29, 900.00000, 2386.32, 0, 10.8749, 10.8749
29, 1800.00000, 2385.73, 0, 11.2938, 11.2938
29, 2700.00000, 2385.74, 0, 11.2941, 11.2941
30, 0.00000, 2385.74, 0, 11.294, 11.294
30, 900.00000, 2385.74, 0, 11.294, 11.294
30, 1800.00000, 2385.74, 0, 11.294, 11.294
30, 2700.00000, 2380.82, 0, 12.341, 12.341
31, 0.00000, 2380.83, 0, 12.3411, 12.3411
31, 900.00000, 2380.83, 0, 12.3411, 12.3411
31, 1800.00000, 2374.44, 0, 14.0826, 14.0826
31, 2700.00000, 2374.44, 0, 14.0825, 14.0825
32, 0.00000, 2374.44, 0, 14.0825, 14.0825
32, 900.00000, 2374.44, 0, 14.0825, 14.0825
32, 1800.00000, 2374.44, 0, 14.0825, 14.0825
32, 2700.00000, 2367.45, 0, 15.7164, 15.7164
33, 0.00000, 2367.45, 0, 15.7165, 15.7165
33, 900.00000, 2367.45, 0, 15.7165, 15.7165
33, 1800.00000, 2364.71, 0, 16.6425, 16.6425
33, 2700.00000, 2364.71, 0, 16.6426, 16.6426
34, 0.00000, 2364.71, 0, 16.6426, 16.6426
34, 900.00000, 2364.71, 0, 16.6426, 16.6426
34, 1800.00000, 2364.71, 0, 16.6426, 16.6426
34, 2700.00000, 2360.06, 0, 17.8132, 17.8132
35, 0.00000, 2360.08, 0, 17.8122, 17.8122
35, 900.00000, 2360.08, 0, 17.8122, 17.8122
35, 1800.00000, 2356.15, 0, 18.7716, 18.7716
35, 2700.00000, 2356.15, 0, 18.7719, 18.7719
36, 0.00000, 2356.15, 0, 18.7719, 18.7719
36, 900.00000, 2356.15, 0, 18.7719, 18.7719
36, 1800.00000, 2356.15, 0, 18.7719, 18.7719
36, 2700.00000, 2356.93, 0, 18.6903, 18.6903
37, 0.00000, 2356.93, 0, 18.6898, 18.6898
37, 900.00000, 2356.93, 0, 18.6898, 18.6898
37, 1800.00000, 2356.09, 0, 18.601, 18.601
37, 2700.00000, 2356.08, 0, 18.6016, 18.6016
38, 0.00000, 2356.08, 0, 18.6016, 18.6016
38, 900.00000, 2356.08, 0, 18.6016, 18.6016
38, 1800.00000, 2356.08, 0, 18.6016, 18.6016
38, 2700.00000, 2356.92, 0, 18.7815, 18.7815
39, 0.00000, 2356.92, 0, 18.7809, 18.7809
39, 900.00000, 2356.92, 0, 18.7809, 18.7809
39, 1800.00000, 2355.16, 0, 18.9685, 18.9685
39, 2700.00000, 2355.15, 0, 18.9698, 18.9698
40, 0.00000, 2355.15, 0, 18.9698, 18.9698
40, 900.00000, 2355.15, 0, 18.9698, 18.9698
40, 1800.00000, 2355.15, 0, 18.9698, 18.9698
40, 2700.00000, 2354.89, 0, 18.9907, 18.9907
41, 0.00000, 2354.88, 0, 18.9909, 18.9909
41, 900.00000, 2354.88, 0, 18.9909, 18.9909
41, 1800.00000, 2359.19, 0, 18.1603, 18.1603
41, 2700.00000, 2359.2, 0, 18.16, 18.16
42, 0.00000, 2359.2, 0, 18.16, 18.16
42, 900.00000, 2359.2, 0, 18.16, 18.16
42, 1800.00000, 2359.2, 0, 18.16, 18.16
42, 2700.00000, 2360.56, 0, 17.7336, 17.7336
43, 0.00000, 2360.57, 0, 17.7326, 17.7326
43, 900.00000, 2360.57, 0, 17.7326, 17.7326
43, 1800.00000, 2362.21, 0, 17.2859, 17.2859
43, 2700.00000, 2362.22, 0, 17.2848, 17.2848
44, 0.00000, 2362.22, 0, 17.2848, 17.2848
44, 900.00000, 2362.22, 0, 17.2848, 17.2848
44, 1800.00000, 2362.22, 0, 17.2848, 17.2848
44, 2700.00000, 2364.78, 0, 16.5666, 16.5666
45, 0.00000, 2364.78, 0, 16.5664, 16.5664
45, 900.00000, 2364.78, 0, 16.5664, 16.5664
45, 1800.00000, 2364.78, 0, 16.5664, 16.5664
45, 2700.00000, 2364.78, 0, 16.5664, 16.5664
46, 0.00000, 2364.78, 0, 16.5664, 16.5664
46, 900.00000, 2364.78, 0, 16.5664, 16.5664
46, 1800.00000, 2364.78, 0, 16.5664, 16.5664
46, 2700.00000, 2368.56, 0, 15.6336, 15.6336
47, 0.00000, 2368.56, 0, 15.6337, 15.6337
47, 900.00000, 2368.56, 0, 15.6337, 15.6337
47, 1800.00000, 2374.17, 0, 14.2405, 14.2405
47, 2700.00000, 2374.18, 0, 14.2405, 14.2405
48, 0.00000, 2374.18, 0, 14.2404, 14.2404
