hour, t(sec), |V|1 (volts), |V|2 (volts), |I|1 (amps), |I|2 (amps)
0, 900.00000, 2396.9, 0, 14.1056, 14.1056
0, 1800.00000, 2396.9, 0, 14.1055, 14.1055
0, 2700.00000, 2408.14, 0, 12.5725, 12.5725
1, 0.00000, 2408.14, 0, 12.5725, 12.5725
1, 900.00000, 2408.14, 0, 12.5725, 12.5725
1, 1800.00000, 2412.49, 0, 11.5971, 11.5971
1, 2700.00000, 2412.49, 0, 11.597, 11.597
2, 0.00000, 2412.49, 0, 11.597, 11.597
2, 900.00000, 2412.49, 0, 11.597, 11.597
2, 1800.00000, 2412.49, 0, 11.597, 11.597
2, 2700.00000, 2418.9, 0, 11.2538, 11.2538
3, 0.00000, 2418.9, 0, 11.2538, 11.2538
3, 900.00000, 2418.9, 0, 11.2538, 11.2538
3, 1800.00000, 2421.8, 0, 10.7712, 10.7712
3, 2700.00000, 2421.8, 0, 10.7713, 10.7713
4, 0.00000, 2421.8, 0, 10.7713, 10.7713
4, 900.00000, 2421.8, 0, 10.7713, 10.7713
4, 1800.00000, 2421.8, 0, 10.7713, 10.7713
4, 2700.00000, 2418.14, 0, 10.7317, 10.7317
5, 0.00000, 2418.14, 0, 10.7317, 10.7317
5, 900.00000, 2418.14, 0, 10.7317, 10.7317
5, 1800.00000, 2413.76, 0, 11.1629, 11.1629
5, 2700.00000, 2413.76, 0, 11.1629, 11.1629
6, 0.00000, 2413.76, 0, 11.1629, 11.1629
6, 900.00000, 2413.76, 0, 11.1629, 11.1629
6, 1800.00000, 2413.76, 0, 11.1629, 11.1629
6, 2700.00000, 2411.01, 0, 12.1867, 12.1867
7, 0.00000, 2411.01, 0, 12.1866, 12.1866
7, 900.00000, 2411.01, 0, 12.1866, 12.1866
7, 1800.00000, 2407.23, 0, 13.8909, 13.8909
7, 2700.00000, 2407.23, 0, 13.8907, 13.8907
8, 0.00000, 2407.23, 0, 13.8907, 13.8907
8, 900.00000, 2407.23, 0, 13.8907, 13.8907
8, 1800.00000, 2407.23, 0, 13.8907, 13.8907
8, 2700.00000, 2410.01, 0, 15.4391, 15.4391
9, 0.00000, 2410.01, 0, 15.439, 15.439
9, 900.00000, 2410.01, 0, 15.439, 15.439
9, 1800.00000, 2413.65, 0, 16.3052, 16.3052
9, 2700.00000, 2413.65, 0, 16.3051, 16.3051
10, 0.00000, 2413.65, 0, 16.3051, 16.3051
10, 900.00000, 2413.65, 0, 16.3051, 16.3051
10, 1800.00000, 2413.65, 0, 16.3051, 16.3051
10, 2700.00000, 2418.95, 0, 17.3787, 17.3787
11, 0.00000, 2418.96, 0, 17.3786, 17.3786
11, 900.00000, 2418.96, 0, 17.3786, 17.3786
11, 1800.00000, 2414.96, 0, 18.3148, 18.3148
11, 2700.00000, 2414.96, 0, 18.3148, 18.3148
12, 0.00000, 2414.96, 0, 18.3148, 18.3148
12, 900.00000, 2414.96, 0, 18.3148, 18.3148
12, 1800.00000, 2414.96, 0, 18.3148, 18.3148
12, 2700.00000, 2414.28, 0, 18.2458, 18.2458
13, 0.00000, 2414.28, 0, 18.2458, 18.2458
13, 900.00000, 2414.29, 0, 18.2458, 18.2458
13, 1800.00000, 2416.52, 0, 18.1365, 18.1365
13, 2700.00000, 2416.52, 0, 18.1364, 18.1364
14, 0.00000, 2416.52, 0, 18.1364, 18.1364
14, 900.00000, 2416.52, 0, 18.1364, 18.1364
14, 1800.00000, 2416.52, 0, 18.1364, 18.1364
14, 2700.00000, 2417.26, 0, 18.3121, 18.3121
15, 0.00000, 2417.27, 0, 18.3121, 18.3121
15, 900.00000, 2417.27, 0, 18.3121, 18.3121
15, 1800.00000, 2414.7, 0, 18.5019, 18.5019
15, 2700.00000, 2414.7, 0, 18.5019, 18.5019
16, 0.00000, 2414.7, 0, 18.5019, 18.5019
16, 900.00000, 2414.7, 0, 18.5019, 18.5019
16, 1800.00000, 2414.7, 0, 18.5019, 18.5019
16, 2700.00000, 2405.66, 0, 18.5902, 18.5902
17, 0.00000, 2405.66, 0, 18.5901, 18.5901
17, 900.00000, 2405.66, 0, 18.5901, 18.5901
17, 1800.00000, 2413.14, 0, 17.754, 17.754
17, 2700.00000, 2413.13, 0, 17.7541, 17.7541
18, 0.00000, 2413.13, 0, 17.7541, 17.7541
18, 900.00000, 2413.13, 0, 17.7541, 17.7541
18, 1800.00000, 2413.13, 0, 17.7541, 17.7541
18, 2700.00000, 2408.43, 0, 17.3803, 17.3803
19, 0.00000, 2408.44, 0, 17.3802, 17.3802
19, 900.00000, 2408.44, 0, 17.3802, 17.3802
19, 1800.00000, 2413.57, 0, 16.9172, 16.9172
19, 2700.00000, 2413.57, 0, 16.9171, 16.9171
20, 0.00000, 2413.57, 0, 16.9171, 16.9171
20, 900.00000, 2413.57, 0, 16.9171, 16.9171
20, 1800.00000, 2413.57, 0, 16.9171, 16.9171
20, 2700.00000, 2418.76, 0, 16.1968, 16.1968
21, 0.00000, 2418.76, 0, 16.1967, 16.1967
21, 900.00000, 2418.76, 0, 16.1967, 16.1967
21, 1800.00000, 2413.78, 0, 16.23, 16.23
21, 2700.00000, 2413.78, 0, 16.2301, 16.2301
22, 0.00000, 2413.78, 0, 16.2301, 16.2301
22, 900.00000, 2413.78, 0, 16.2301, 16.2301
22, 1800.00000, 2413.78, 0, 16.2301, 16.2301
22, 2700.00000, 2417.33, 0, 15.3183, 15.3183
23, 0.00000, 2417.33, 0, 15.3182, 15.3182
23, 900.00000, 2417.33, 0, 15.3182, 15.3182
23, 1800.00000, 2427, 0, 13.9304, 13.9304
23, 2700.00000, 2427, 0, 13.9305, 13.9305
24, 0.00000, 2427, 0, 13.9305, 13.9305
