hour, t(sec), |V|1 (volts), |V|2 (volts), |I|1 (amps), |I|2 (amps)
0, 900.00000, 2452.21, 0, 14.393, 14.393
0, 1800.00000, 2452.22, 0, 14.3938, 14.3938
0, 2700.00000, 2457.67, 0, 12.9183, 12.9183
1, 0.00000, 2457.67, 0, 12.9183, 12.9183
1, 900.00000, 2457.67, 0, 12.9183, 12.9183
1, 1800.00000, 2470.13, 0, 11.9981, 11.9981
1, 2700.00000, 2470.13, 0, 11.998, 11.998
2, 0.00000, 2470.13, 0, 11.998, 11.998
2, 900.00000, 2470.13, 0, 11.998, 11.998
2, 1800.00000, 2470.13, 0, 11.998, 11.998
2, 2700.00000, 2469.35, 0, 11.6707, 11.6707
3, 0.00000, 2469.33, 0, 11.6701, 11.6701
3, 900.00000, 2469.33, 0, 11.6701, 11.6701
3, 1800.00000, 2473.52, 0, 11.202, 11.202
3, 2700.00000, 2473.52, 0, 11.2021, 11.2021
4, 0.00000, 2473.52, 0, 11.2021, 11.2021
4, 900.00000, 2473.52, 0, 11.2021, 11.2021
4, 1800.00000, 2473.52, 0, 11.2021, 11.2021
4, 2700.00000, 2472.31, 0, 11.1391, 11.1391
5, 0.00000, 2472.29, 0, 11.1386, 11.1386
5, 900.00000, 2472.29, 0, 11.1386, 11.1386
5, 1800.00000, 2470.83, 0, 11.5586, 11.5586
5, 2700.00000, 2470.83, 0, 11.5583, 11.5583
6, 0.00000, 2470.83, 0, 11.5583, 11.5583
6, 900.00000, 2470.83, 0, 11.5583, 11.5583
6, 1800.00000, 2470.83, 0, 11.5583, 11.5583
6, 2700.00000, 2463.56, 0, 12.5668, 12.5668
7, 0.00000, 2463.57, 0, 12.5667, 12.5667
7, 900.00000, 2463.57, 0, 12.5667, 12.5667
7, 1800.00000, 2453.36, 0, 14.2422, 14.2422
7, 2700.00000, 2453.36, 0, 14.2423, 14.2423
8, 0.00000, 2453.36, 0, 14.2423, 14.2423
8, 900.00000, 2453.36, 0, 14.2423, 14.2423
8, 1800.00000, 2453.36, 0, 14.2423, 14.2423
8, 2700.00000, 2442.74, 0, 15.7798, 15.7798
9, 0.00000, 2442.74, 0, 15.7795, 15.7795
9, 900.00000, 2442.74, 0, 15.7795, 15.7795
9, 1800.00000, 2438.02, 0, 16.6577, 16.6577
9, 2700.00000, 2438.02, 0, 16.6576, 16.6576
10, 0.00000, 2438.02, 0, 16.6576, 16.6576
10, 900.00000, 2438.02, 0, 16.6576, 16.6576
10, 1800.00000, 2438.02, 0, 16.6576, 16.6576
10, 2700.00000, 2446.92, 0, 17.8582, 17.8582
11, 0.00000, 2446.93, 0, 17.8583, 17.8583
11, 900.00000, 2446.93, 0, 17.8583, 17.8583
11, 1800.00000, 2440.91, 0, 18.7434, 18.7434
11, 2700.00000, 2440.9, 0, 18.743, 18.743
12, 0.00000, 2440.9, 0, 18.743, 18.743
12, 900.00000, 2440.9, 0, 18.743, 18.743
12, 1800.00000, 2440.9, 0, 18.743, 18.743
12, 2700.00000, 2441.89, 0, 18.6741, 18.6741
13, 0.00000, 2441.89, 0, 18.6748, 18.6748
13, 900.00000, 2441.89, 0, 18.6748, 18.6748
13, 1800.00000, 2441.19, 0, 18.5754, 18.5754
13, 2700.00000, 2441.19, 0, 18.5746, 18.5746
14, 0.00000, 2441.19, 0, 18.5746, 18.5746
14, 900.00000, 2441.19, 0, 18.5746, 18.5746
14, 1800.00000, 2441.19, 0, 18.5746, 18.5746
14, 2700.00000, 2441.69, 0, 18.7636, 18.7636
15, 0.00000, 2441.7, 0, 18.7643, 18.7643
15, 900.00000, 2441.7, 0, 18.7643, 18.7643
15, 1800.00000, 2439.49, 0, 18.923, 18.923
15, 2700.00000, 2439.47, 0, 18.9214, 18.9214
16, 0.00000, 2439.47, 0, 18.9214, 18.9214
16, 900.00000, 2439.47, 0, 18.9214, 18.9214
16, 1800.00000, 2439.47, 0, 18.9214, 18.9214
16, 2700.00000, 2439.14, 0, 18.938, 18.938
17, 0.00000, 2439.14, 0, 18.9378, 18.9378
17, 900.00000, 2439.14, 0, 18.9378, 18.9378
17, 1800.00000, 2445.27, 0, 18.1877, 18.1877
17, 2700.00000, 2445.28, 0, 18.188, 18.188
18, 0.00000, 2445.28, 0, 18.188, 18.188
18, 900.00000, 2445.28, 0, 18.188, 18.188
18, 1800.00000, 2445.28, 0, 18.188, 18.188
18, 2700.00000, 2447.53, 0, 17.7857, 17.7857
19, 0.00000, 2447.55, 0, 17.7869, 17.7869
19, 900.00000, 2447.55, 0, 17.7869, 17.7869
19, 1800.00000, 2450.14, 0, 17.3669, 17.3669
19, 2700.00000, 2450.16, 0, 17.3683, 17.3683
20, 0.00000, 2450.16, 0, 17.3683, 17.3683
20, 900.00000, 2450.16, 0, 17.3683, 17.3683
20, 1800.00000, 2450.16, 0, 17.3683, 17.3683
20, 2700.00000, 2454.28, 0, 16.6923, 16.6923
21, 0.00000, 2454.28, 0, 16.6925, 16.6925
21, 900.00000, 2454.28, 0, 16.6925, 16.6925
21, 1800.00000, 2454.28, 0, 16.6925, 16.6925
21, 2700.00000, 2454.28, 0, 16.6925, 16.6925
22, 0.00000, 2454.28, 0, 16.6925, 16.6925
22, 900.00000, 2454.28, 0, 16.6925, 16.6925
22, 1800.00000, 2454.28, 0, 16.6925, 16.6925
22, 2700.00000, 2460.11, 0, 15.8154, 15.8154
23, 0.00000, 2460.1, 0, 15.8153, 15.8153
23, 900.00000, 2460.1, 0, 15.8153, 15.8153
23, 1800.00000, 2468.78, 0, 14.4909, 14.4909
23, 2700.00000, 2468.79, 0, 14.491, 14.491
24, 0.00000, 2468.79, 0, 14.491, 14.491
24, 900.00000, 2468.79, 0, 14.491, 14.491
24, 1800.00000, 2468.79, 0, 14.491, 14.491
24, 2700.00000, 2474.32, 0, 13.0058, 13.0058
25, 0.00000, 2474.32, 0, 13.0058, 13.0058
25, 900.00000, 2474.32, 0, 13.0058, 13.0058
25, 1800.00000, 2471.14, 0, 12.0034, 12.0034
25, 2700.00000, 2471.14, 0, 12.0029, 12.0029
26, 0.00000, 2471.14, 0, 12.0029, 12.0029
26, 900.00000, 2471.14, 0, 12.0029, 12.0029
26, 1800.00000, 2471.14, 0, 12.0029, 12.0029
26, 2700.00000, 2470.39, 0, 11.6755, 11.6755
27, 0.00000, 2470.37, 0, 11.675, 11.675
27, 900.00000, 2470.37, 0, 11.675, 11.675
27, 1800.00000, 2474.53, 0, 11.2066, 11.2066
27, 2700.00000, 2474.53, 0, 11.2067, 11.2067
28, 0.00000, 2474.52, 0, 11.2067, 11.2067
28, 900.00000, 2474.52, 0, 11.2067, 11.2067
28, 1800.00000, 2474.52, 0, 11.2067, 11.2067
28, 2700.00000, 2473.33, 0, 11.1437, 11.1437
29, 0.00000, 2473.32, 0, 11.1432, 11.1432
29, 900.00000, 2473.32, 0, 11.1432, 11.1432
29, 1800.00000, 2471.85, 0, 11.5634, 11.5634
29, 2700.00000, 2471.86, 0, 11.563, 11.563
30, 0.00000, 2471.86, 0, 11.5631, 11.5631
30, 900.00000, 2471.86, 0, 11.5631, 11.5631
30, 1800.00000, 2471.86, 0, 11.5631, 11.5631
30, 2700.00000, 2464.63, 0, 12.5723, 12.5723
31, 0.00000, 2464.64, 0, 12.5722, 12.5722
31, 900.00000, 2464.64, 0, 12.5722, 12.5722
31, 1800.00000, 2454.48, 0, 14.2488, 14.2488
31, 2700.00000, 2454.49, 0, 14.2489, 14.2489
32, 0.00000, 2454.49, 0, 14.2489, 14.2489
32, 900.00000, 2454.49, 0, 14.2489, 14.2489
32, 1800.00000, 2454.49, 0, 14.2489, 14.2489
32, 2700.00000, 2443.93, 0, 15.7875, 15.7875
33, 0.00000, 2443.93, 0, 15.7872, 15.7872
33, 900.00000, 2443.93, 0, 15.7872, 15.7872
33, 1800.00000, 2439.23, 0, 16.666, 16.666
33, 2700.00000, 2439.23, 0, 16.6659, 16.6659
34, 0.00000, 2439.23, 0, 16.6659, 16.6659
34, 900.00000, 2439.23, 0, 16.6659, 16.6659
34, 1800.00000, 2439.23, 0, 16.6659, 16.6659
34, 2700.00000, 2446.96, 0, 17.8575, 17.8575
35, 0.00000, 2446.97, 0, 17.8587, 17.8587
35, 900.00000, 2446.97, 0, 17.8587, 17.8587
35, 1800.00000, 2440.96, 0, 18.7438, 18.7438
35, 2700.00000, 2440.96, 0, 18.7434, 18.7434
36, 0.00000, 2440.96, 0, 18.7434, 18.7434
36, 900.00000, 2440.96, 0, 18.7434, 18.7434
36, 1800.00000, 2440.96, 0, 18.7434, 18.7434
36, 2700.00000, 2441.94, 0, 18.6745, 18.6745
37, 0.00000, 2441.94, 0, 18.6752, 18.6752
37, 900.00000, 2441.94, 0, 18.6752, 18.6752
37, 1800.00000, 2441.25, 0, 18.5757, 18.5757
37, 2700.00000, 2441.24, 0, 18.575, 18.575
38, 0.00000, 2441.24, 0, 18.575, 18.575
38, 900.00000, 2441.24, 0, 18.575, 18.575
38, 1800.00000, 2441.24, 0, 18.575, 18.575
38, 2700.00000, 2441.74, 0, 18.764, 18.764
39, 0.00000, 2441.75, 0, 18.7647, 18.7647
39, 900.00000, 2441.75, 0, 18.7647, 18.7647
39, 1800.00000, 2439.54, 0, 18.9234, 18.9234
39, 2700.00000, 2439.52, 0, 18.9218, 18.9218
40, 0.00000, 2439.52, 0, 18.9218, 18.9218
40, 900.00000, 2439.52, 0, 18.9218, 18.9218
40, 1800.00000, 2439.52, 0, 18.9218, 18.9218
40, 2700.00000, 2439.19, 0, 18.9384, 18.9384
41, 0.00000, 2439.19, 0, 18.9382, 18.9382
41, 900.00000, 2439.19, 0, 18.9382, 18.9382
41, 1800.00000, 2445.32, 0, 18.188, 18.188
41, 2700.00000, 2445.33, 0, 18.1884, 18.1884
42, 0.00000, 2445.33, 0, 18.1884, 18.1884
42, 900.00000, 2445.33, 0, 18.1884, 18.1884
42, 1800.00000, 2445.33, 0, 18.1884, 18.1884
42, 2700.00000, 2447.58, 0, 17.786, 17.786
43, 0.00000, 2447.6, 0, 17.7872, 17.7872
43, 900.00000, 2447.6, 0, 17.7872, 17.7872
43, 1800.00000, 2450.19, 0, 17.3673, 17.3673
43, 2700.00000, 2450.21, 0, 17.3687, 17.3687
44, 0.00000, 2450.21, 0, 17.3687, 17.3687
44, 900.00000, 2450.21, 0, 17.3687, 17.3687
44, 1800.00000, 2450.21, 0, 17.3687, 17.3687
44, 2700.00000, 2454.32, 0, 16.6926, 16.6926
45, 0.00000, 2454.32, 0, 16.6928, 16.6928
45, 900.00000, 2454.32, 0, 16.6928, 16.6928
45, 1800.00000, 2454.32, 0, 16.6928, 16.6928
45, 2700.00000, 2454.32, 0, 16.6928, 16.6928
46, 0.00000, 2454.32, 0, 16.6928, 16.6928
46, 900.00000, 2454.32, 0, 16.6928, 16.6928
46, 1800.00000, 2454.32, 0, 16.6928, 16.6928
46, 2700.00000, 2460.15, 0, 15.8156, 15.8156
47, 0.00000, 2460.15, 0, 15.8155, 15.8155
47, 900.00000, 2460.15, 0, 15.8155, 15.8155
47, 1800.00000, 2468.82, 0, 14.4911, 14.4911
47, 2700.00000, 2468.82, 0, 14.4912, 14.4912
48, 0.00000, 2468.82, 0, 14.4912, 14.4912
