hour, t(sec), |V|1 (volts), |V|2 (volts), |I|1 (amps), |I|2 (amps)
0, 900.00000, 2470.53, 0, 13.6849, 13.6849
0, 1800.00000, 2470.53, 0, 13.685, 13.685
0, 2700.00000, 2472.79, 0, 12.2439, 12.2439
1, 0.00000, 2472.79, 0, 12.2438, 12.2438
1, 900.00000, 2472.79, 0, 12.2438, 12.2438
1, 1800.00000, 2478.02, 0, 11.2903, 11.2903
1, 2700.00000, 2478.02, 0, 11.2903, 11.2903
2, 0.00000, 2478.02, 0, 11.2903, 11.2903
2, 900.00000, 2478.02, 0, 11.2903, 11.2903
2, 1800.00000, 2478.02, 0, 11.2903, 11.2903
2, 2700.00000, 2491.22, 0, 10.9272, 10.9272
3, 0.00000, 2491.22, 0, 10.9271, 10.9271
3, 900.00000, 2491.22, 0, 10.9271, 10.9271
3, 1800.00000, 2496, 0, 10.4511, 10.4511
3, 2700.00000, 2496, 0, 10.4511, 10.4511
4, 0.00000, 2496, 0, 10.4511, 10.4511
4, 900.00000, 2496, 0, 10.4511, 10.4511
4, 1800.00000, 2496, 0, 10.4511, 10.4511
4, 2700.00000, 2487.18, 0, 10.4339, 10.4339
5, 0.00000, 2487.18, 0, 10.4339, 10.4339
5, 900.00000, 2487.18, 0, 10.4339, 10.4339
5, 1800.00000, 2479.15, 0, 10.8685, 10.8685
5, 2700.00000, 2479.15, 0, 10.8685, 10.8685
6, 0.00000, 2479.15, 0, 10.8685, 10.8685
6, 900.00000, 2479.15, 0, 10.8685, 10.8685
6, 1800.00000, 2479.15, 0, 10.8685, 10.8685
6, 2700.00000, 2476.52, 0, 11.8643, 11.8643
7, 0.00000, 2476.51, 0, 11.8642, 11.8642
7, 900.00000, 2476.51, 0, 11.8642, 11.8642
7, 1800.00000, 2474.3, 0, 13.5138, 13.5138
7, 2700.00000, 2474.28, 0, 13.5143, 13.5143
8, 0.00000, 2474.28, 0, 13.5143, 13.5143
8, 900.00000, 2474.28, 0, 13.5143, 13.5143
8, 1800.00000, 2474.28, 0, 13.5143, 13.5143
8, 2700.00000, 2473.8, 0, 15.0408, 15.0408
9, 0.00000, 2473.8, 0, 15.0409, 15.0409
9, 900.00000, 2473.8, 0, 15.0409, 15.0409
9, 1800.00000, 2471.22, 0, 15.926, 15.926
9, 2700.00000, 2471.22, 0, 15.9252, 15.9252
10, 0.00000, 2471.22, 0, 15.9252, 15.9252
10, 900.00000, 2471.22, 0, 15.9252, 15.9252
10, 1800.00000, 2471.22, 0, 15.9252, 15.9252
10, 2700.00000, 2474.66, 0, 16.9883, 16.9883
11, 0.00000, 2474.67, 0, 16.9873, 16.9873
11, 900.00000, 2474.67, 0, 16.9873, 16.9873
11, 1800.00000, 2469.2, 0, 17.9135, 17.9135
11, 2700.00000, 2469.21, 0, 17.9124, 17.9124
12, 0.00000, 2469.21, 0, 17.9124, 17.9124
12, 900.00000, 2469.21, 0, 17.9124, 17.9124
12, 1800.00000, 2469.21, 0, 17.9124, 17.9124
12, 2700.00000, 2473.05, 0, 17.8133, 17.8133
13, 0.00000, 2473.07, 0, 17.8121, 17.8121
13, 900.00000, 2473.07, 0, 17.8121, 17.8121
13, 1800.00000, 2479.77, 0, 17.6742, 17.6742
13, 2700.00000, 2479.78, 0, 17.6737, 17.6737
14, 0.00000, 2479.78, 0, 17.6737, 17.6737
14, 900.00000, 2479.78, 0, 17.6737, 17.6737
14, 1800.00000, 2479.78, 0, 17.6737, 17.6737
14, 2700.00000, 2470.59, 0, 17.9161, 17.9161
15, 0.00000, 2470.58, 0, 17.917, 17.917
15, 900.00000, 2470.58, 0, 17.917, 17.917
15, 1800.00000, 2476.45, 0, 18.0417, 18.0417
15, 2700.00000, 2476.48, 0, 18.0404, 18.0404
16, 0.00000, 2476.48, 0, 18.0404, 18.0404
16, 900.00000, 2476.48, 0, 18.0404, 18.0404
16, 1800.00000, 2476.48, 0, 18.0404, 18.0404
16, 2700.00000, 2499.47, 0, 17.8924, 17.8924
17, 0.00000, 2499.46, 0, 17.8924, 17.8924
17, 900.00000, 2499.46, 0, 17.8924, 17.8924
17, 1800.00000, 2501.46, 0, 17.1263, 17.1263
17, 2700.00000, 2501.45, 0, 17.1273, 17.1273
18, 0.00000, 2501.45, 0, 17.1273, 17.1273
18, 900.00000, 2501.45, 0, 17.1273, 17.1273
18, 1800.00000, 2501.45, 0, 17.1273, 17.1273
18, 2700.00000, 2499.52, 0, 16.7461, 16.7461
19, 0.00000, 2499.51, 0, 16.7469, 16.7469
19, 900.00000, 2499.51, 0, 16.747, 16.747
19, 1800.00000, 2495.39, 0, 16.3618, 16.3618
19, 2700.00000, 2495.38, 0, 16.3625, 16.3625
20, 0.00000, 2495.38, 0, 16.3625, 16.3625
20, 900.00000, 2495.38, 0, 16.3625, 16.3625
20, 1800.00000, 2495.38, 0, 16.3625, 16.3625
20, 2700.00000, 2497.35, 0, 15.6867, 15.6867
21, 0.00000, 2497.35, 0, 15.687, 15.687
21, 900.00000, 2497.35, 0, 15.687, 15.687
21, 1800.00000, 2497.35, 0, 15.687, 15.687
21, 2700.00000, 2497.35, 0, 15.687, 15.687
22, 0.00000, 2497.35, 0, 15.687, 15.687
22, 900.00000, 2497.35, 0, 15.687, 15.687
22, 1800.00000, 2497.35, 0, 15.687, 15.687
22, 2700.00000, 2484.26, 0, 14.9055, 14.9055
23, 0.00000, 2484.26, 0, 14.9055, 14.9055
23, 900.00000, 2484.26, 0, 14.9055, 14.9055
23, 1800.00000, 2485.86, 0, 13.6006, 13.6006
23, 2700.00000, 2485.86, 0, 13.6006, 13.6006
24, 0.00000, 2485.86, 0, 13.6006, 13.6006
