hour, t(sec), |V|1 (volts), |V|2 (volts), |I|1 (amps), |I|2 (amps)
0, 900.00000, 2359.72, 0, 13.7801, 13.7801
0, 1800.00000, 2359.72, 0, 13.7799, 13.7799
0, 2700.00000, 2372.43, 0, 12.2738, 12.2738
1, 0.00000, 2372.43, 0, 12.2738, 12.2738
1, 900.00000, 2372.43, 0, 12.2738, 12.2738
1, 1800.00000, 2379.96, 0, 11.3062, 11.3062
1, 2700.00000, 2379.96, 0, 11.3061, 11.3061
2, 0.00000, 2379.96, 0, 11.3061, 11.3061
2, 900.00000, 2379.96, 0, 11.3061, 11.3061
2, 1800.00000, 2379.96, 0, 11.3061, 11.3061
2, 2700.00000, 2389.05, 0, 10.9587, 10.9587
3, 0.00000, 2389.05, 0, 10.9588, 10.9588
3, 900.00000, 2389.05, 0, 10.9588, 10.9588
3, 1800.00000, 2393.76, 0, 10.4808, 10.4808
3, 2700.00000, 2393.76, 0, 10.4809, 10.4809
4, 0.00000, 2393.76, 0, 10.4809, 10.4809
4, 900.00000, 2393.76, 0, 10.4809, 10.4809
4, 1800.00000, 2393.76, 0, 10.4809, 10.4809
4, 2700.00000, 2389.01, 0, 10.4473, 10.4473
5, 0.00000, 2389.01, 0, 10.4473, 10.4473
5, 900.00000, 2389.01, 0, 10.4473, 10.4473
5, 1800.00000, 2382.43, 0, 10.8773, 10.8773
5, 2700.00000, 2382.43, 0, 10.8773, 10.8773
6, 0.00000, 2382.43, 0, 10.8773, 10.8773
6, 900.00000, 2382.43, 0, 10.8773, 10.8773
6, 1800.00000, 2382.43, 0, 10.8773, 10.8773
6, 2700.00000, 2380.24, 0, 11.8723, 11.8723
7, 0.00000, 2380.24, 0, 11.8722, 11.8722
7, 900.00000, 2380.24, 0, 11.8722, 11.8722
7, 1800.00000, 2375.45, 0, 13.5386, 13.5386
7, 2700.00000, 2375.45, 0, 13.5384, 13.5384
8, 0.00000, 2375.45, 0, 13.5384, 13.5384
8, 900.00000, 2375.45, 0, 13.5384, 13.5384
8, 1800.00000, 2375.45, 0, 13.5384, 13.5384
8, 2700.00000, 2379.15, 0, 15.0415, 15.0415
9, 0.00000, 2379.15, 0, 15.0414, 15.0414
9, 900.00000, 2379.15, 0, 15.0414, 15.0414
9, 1800.00000, 2388.28, 0, 15.8484, 15.8484
9, 2700.00000, 2388.28, 0, 15.8483, 15.8483
10, 0.00000, 2388.28, 0, 15.8483, 15.8483
10, 900.00000, 2388.28, 0, 15.8483, 15.8483
10, 1800.00000, 2388.28, 0, 15.8483, 15.8483
10, 2700.00000, 2401.77, 0, 16.8338, 16.8338
11, 0.00000, 2401.78, 0, 16.8338, 16.8338
11, 900.00000, 2401.78, 0, 16.8338, 16.8338
11, 1800.00000, 2397.22, 0, 17.7449, 17.7449
11, 2700.00000, 2397.23, 0, 17.7449, 17.7449
12, 0.00000, 2397.23, 0, 17.7449, 17.7449
12, 900.00000, 2397.23, 0, 17.7449, 17.7449
12, 1800.00000, 2397.23, 0, 17.7449, 17.7449
12, 2700.00000, 2398.05, 0, 17.667, 17.667
13, 0.00000, 2398.06, 0, 17.667, 17.667
13, 900.00000, 2398.06, 0, 17.667, 17.667
13, 1800.00000, 2401.16, 0, 17.5547, 17.5547
13, 2700.00000, 2401.16, 0, 17.5546, 17.5546
14, 0.00000, 2401.16, 0, 17.5546, 17.5546
14, 900.00000, 2401.16, 0, 17.5546, 17.5546
14, 1800.00000, 2401.16, 0, 17.5546, 17.5546
14, 2700.00000, 2402.17, 0, 17.7226, 17.7226
15, 0.00000, 2402.17, 0, 17.7227, 17.7227
15, 900.00000, 2402.17, 0, 17.7227, 17.7227
15, 1800.00000, 2397.7, 0, 17.9208, 17.9208
15, 2700.00000, 2397.7, 0, 17.9208, 17.9208
16, 0.00000, 2397.7, 0, 17.9208, 17.9208
16, 900.00000, 2397.7, 0, 17.9208, 17.9208
16, 1800.00000, 2397.7, 0, 17.9208, 17.9208
16, 2700.00000, 2380.19, 0, 18.0709, 18.0709
17, 0.00000, 2380.2, 0, 18.0706, 18.0706
17, 900.00000, 2380.19, 0, 18.0706, 18.0706
17, 1800.00000, 2377.46, 0, 17.3315, 17.3315
17, 2700.00000, 2377.46, 0, 17.3316, 17.3316
18, 0.00000, 2377.46, 0, 17.3316, 17.3316
18, 900.00000, 2377.46, 0, 17.3316, 17.3316
18, 1800.00000, 2377.46, 0, 17.3316, 17.3316
18, 2700.00000, 2362.32, 0, 17.0421, 17.0421
19, 0.00000, 2362.32, 0, 17.0421, 17.0421
19, 900.00000, 2362.32, 0, 17.0421, 17.0421
19, 1800.00000, 2366.54, 0, 16.5937, 16.5937
19, 2700.00000, 2366.54, 0, 16.5937, 16.5937
20, 0.00000, 2366.54, 0, 16.5937, 16.5937
20, 900.00000, 2366.54, 0, 16.5937, 16.5937
20, 1800.00000, 2366.54, 0, 16.5937, 16.5937
20, 2700.00000, 2374.7, 0, 15.8665, 15.8665
21, 0.00000, 2374.7, 0, 15.8665, 15.8665
21, 900.00000, 2374.7, 0, 15.8665, 15.8665
21, 1800.00000, 2368.12, 0, 15.9104, 15.9104
21, 2700.00000, 2368.12, 0, 15.9106, 15.9106
22, 0.00000, 2368.12, 0, 15.9106, 15.9106
22, 900.00000, 2368.12, 0, 15.9106, 15.9106
22, 1800.00000, 2368.12, 0, 15.9106, 15.9106
22, 2700.00000, 2374.47, 0, 14.9987, 14.9987
23, 0.00000, 2374.47, 0, 14.9986, 14.9986
23, 900.00000, 2374.47, 0, 14.9986, 14.9986
23, 1800.00000, 2389.77, 0, 13.6065, 13.6065
23, 2700.00000, 2389.77, 0, 13.6067, 13.6067
24, 0.00000, 2389.77, 0, 13.6067, 13.6067
