hour, t(sec), kWh,State,kWOut,kWIn,kvarOut,DCkW,kWTotalLosses,kWInvLosses,kWIdlingLosses,kWChDchLosses,kWh Chng,InvEff,InverterON,Vref,Vavg (DRC),VV Oper,VW Oper,DRC Oper,VV_DRC Oper,kWDesired,kW VW Limit,Limit kWOut Function,kVA Exceeded,kVA Exceeded,,kVA YFÿÿÿÿ
0, 900.00000, 10200, 1, 1425.01, 0, -0.00180318, 1491.13, 252.918, 66.1261, 19, 167.792, -6800, 0.955654, 1, 9999, 9999, 9999, 9999, 9999, 9999, 9999, 9999, 1425, 9999, 1900, 0
0, 1800.00000, 9780.52, 1, 1425, 0, -3.9046E-006, 1491.13, 252.918, 66.1262, 19, 167.792, -419.481, 0.955654, 1, 9999, 9999, 9999, 9999, 9999, 9999, 9999, 9999, 1425, 9999, 1900, 0
0, 2700.00000, 9361.04, 1, 427.498, 0, -0.0014722, 471.227, 117.199, 43.7289, 19, 54.4697, -419.479, 0.907202, 1, 9999, 9999, 9999, 9999, 9999, 9999, 9999, 9999, 427.5, 9999, 1900, 0
1, 0.00000, 9224.87, 1, 427.5, 0, 2.99169E-008, 471.229, 117.199, 43.729, 19, 54.4699, -136.174, 0.907202, 1, 9999, 9999, 9999, 9999, 9999, 9999, 9999, 9999, 427.5, 9999, 1900, 0
1, 900.00000, 9088.69, 1, 427.5, 0, 4.18774E-009, 471.229, 117.199, 43.729, 19, 54.4699, -136.175, 0.907202, 1, 9999, 9999, 9999, 9999, 9999, 9999, 9999, 9999, 427.5, 9999, 1900, 0
1, 1800.00000, 8952.52, 1, 427.501, 0, -0.000173082, 471.23, 117.199, 43.729, 19, 54.47, -136.175, 0.907202, 1, 9999, 9999, 9999, 9999, 9999, 9999, 9999, 9999, 427.5, 9999, 1900, 0
1, 2700.00000, 8816.34, 1, 427.5, 0, -3.30502E-007, 471.229, 117.199, 43.729, 19, 54.4699, -136.175, 0.907202, 1, 9999, 9999, 9999, 9999, 9999, 9999, 9999, 9999, 427.5, 9999, 1900, 0
2, 0.00000, 8680.17, 1, 427.5, 0, 2.05662E-009, 471.229, 117.199, 43.729, 19, 54.4699, -136.175, 0.907202, 1, 9999, 9999, 9999, 9999, 9999, 9999, 9999, 9999, 427.5, 9999, 1900, 0
2, 900.00000, 8543.99, 1, 427.5, 0, -6.42376E-012, 471.229, 117.199, 43.729, 19, 54.4699, -136.175, 0.907202, 1, 9999, 9999, 9999, 9999, 9999, 9999, 9999, 9999, 427.5, 9999, 1900, 0
2, 1800.00000, 8407.82, 1, 427.5, 0, 6.74845E-013, 471.229, 117.199, 43.729, 19, 54.4699, -136.175, 0.907202, 1, 9999, 9999, 9999, 9999, 9999, 9999, 9999, 9999, 427.5, 9999, 1900, 0
2, 2700.00000, 8271.64, 1, 902.499, 0, -0.000966997, 963.051, 188.669, 60.5522, 19, 109.117, -136.175, 0.937125, 1, 9999, 9999, 9999, 9999, 9999, 9999, 9999, 9999, 902.5, 9999, 1900, 0
3, 0.00000, 7998.85, 1, 902.5, 0, 1.62416E-007, 963.052, 188.669, 60.5523, 19, 109.117, -272.792, 0.937125, 1, 9999, 9999, 9999, 9999, 9999, 9999, 9999, 9999, 902.5, 9999, 1900, 0
3, 900.00000, 7726.06, 1, 902.5, 0, 2.61858E-009, 963.052, 188.669, 60.5523, 19, 109.117, -272.792, 0.937125, 1, 9999, 9999, 9999, 9999, 9999, 9999, 9999, 9999, 902.5, 9999, 1900, 0
3, 1800.00000, 7453.27, 1, 997.497, 0, 0.00135222, 1060.55, 202.005, 63.0544, 19, 119.95, -272.792, 0.940546, 1, 9999, 9999, 9999, 9999, 9999, 9999, 9999, 9999, 997.5, 9999, 1900, 0
3, 2700.00000, 7153.39, 1, 997.5, 0, 2.74876E-006, 1060.55, 202.005, 63.0544, 19, 119.95, -299.876, 0.940546, 1, 9999, 9999, 9999, 9999, 9999, 9999, 9999, 9999, 997.5, 9999, 1900, 0
4, 0.00000, 6853.51, 1, 997.5, 0, -2.2253E-008, 1060.55, 202.005, 63.0544, 19, 119.95, -299.876, 0.940546, 1, 9999, 9999, 9999, 9999, 9999, 9999, 9999, 9999, 997.5, 9999, 1900, 0
4, 900.00000, 6553.64, 1, 997.5, 0, 1.49604E-010, 1060.55, 202.005, 63.0544, 19, 119.95, -299.876, 0.940546, 1, 9999, 9999, 9999, 9999, 9999, 9999, 9999, 9999, 997.5, 9999, 1900, 0
4, 1800.00000, 6253.76, 1, 997.5, 0, -1.28875E-012, 1060.55, 202.005, 63.0544, 19, 119.95, -299.876, 0.940546, 1, 9999, 9999, 9999, 9999, 9999, 9999, 9999, 9999, 997.5, 9999, 1900, 0
4, 2700.00000, 5953.88, 1, 617.501, 0, 0.00209492, 669.14, 147.1, 51.6397, 19, 76.46, -299.876, 0.922827, 1, 9999, 9999, 9999, 9999, 9999, 9999, 9999, 9999, 617.5, 9999, 1900, 0
5, 0.00000, 5762.73, 1, 617.5, 0, 2.79379E-007, 669.14, 147.1, 51.6396, 19, 76.46, -191.15, 0.922827, 1, 9999, 9999, 9999, 9999, 9999, 9999, 9999, 9999, 617.5, 9999, 1900, 0
5, 900.00000, 5571.58, 1, 617.5, 0, -1.03365E-009, 669.14, 147.1, 51.6396, 19, 76.46, -191.15, 0.922827, 1, 9999, 9999, 9999, 9999, 9999, 9999, 9999, 9999, 617.5, 9999, 1900, 0
5, 1800.00000, 5380.44, 1, 380.001, 0, 0.00118396, 420.721, 108.577, 40.7195, 19, 48.8579, -191.15, 0.903215, 1, 9999, 9999, 9999, 9999, 9999, 9999, 9999, 9999, 380, 9999, 1900, 0
5, 2700.00000, 5258.29, 1, 380, 0, -8.22413E-008, 420.719, 108.577, 40.7195, 19, 48.8577, -122.145, 0.903215, 1, 9999, 9999, 9999, 9999, 9999, 9999, 9999, 9999, 380, 9999, 1900, 0
6, 0.00000, 5136.15, 1, 380, 0, -4.75822E-009, 420.719, 108.577, 40.7195, 19, 48.8577, -122.144, 0.903215, 1, 9999, 9999, 9999, 9999, 9999, 9999, 9999, 9999, 380, 9999, 1900, 0
6, 900.00000, 5014, 1, 380, 0, 2.88037E-011, 420.719, 108.577, 40.7195, 19, 48.8577, -122.144, 0.903215, 1, 9999, 9999, 9999, 9999, 9999, 9999, 9999, 9999, 380, 9999, 1900, 0
6, 1800.00000, 4891.86, 1, 380, 0, -1.53705E-013, 420.719, 108.577, 40.7195, 19, 48.8577, -122.144, 0.903215, 1, 9999, 9999, 9999, 9999, 9999, 9999, 9999, 9999, 380, 9999, 1900, 0
6, 2700.00000, 4769.71, 0, 0, 23.0584, -8.24725E-005, -19.0001, 23.0584, 4.05827, 19.0001, 0, -122.144, 0.824, 1, 9999, 9999, 9999, 9999, 9999, 9999, 9999, 9999, 0, 9999, 1900, 0
7, 0.00000, 4769.71, 0, 0, 23.0583, -2.4521E-007, -19, 23.0583, 4.05825, 19, 0, 0, 0.824, 1, 9999, 9999, 9999, 9999, 9999, 9999, 9999, 9999, 0, 9999, 1900, 0
7, 900.00000, 4769.71, 0, 0, 23.0583, -8.76547E-010, -19, 23.0583, 4.05825, 19, 0, 0, 0.824, 1, 9999, 9999, 9999, 9999, 9999, 9999, 9999, 9999, 0, 9999, 1900, 0
7, 1800.00000, 4769.71, -1, 0, 237.501, -0.000958411, -205.001, 70.1002, 32.5001, 19, 18.6001, 0, 0.863158, 1, 9999, 9999, 9999, 9999, 9999, 9999, 9999, 9999, -237.5, 9999, 1900, 0
7, 2700.00000, 4811.56, -1, 0, 237.5, 1.41088E-006, -205, 70.1, 32.5, 19, 18.6, 41.8502, 0.863158, 1, 9999, 9999, 9999, 9999, 9999, 9999, 9999, 9999, -237.5, 9999, 1900, 0
8, 0.00000, 4853.41, -1, 0, 237.5, 9.66207E-008, -205, 70.1, 32.5, 19, 18.6, 41.85, 0.863158, 1, 9999, 9999, 9999, 9999, 9999, 9999, 9999, 9999, -237.5, 9999, 1900, 0
8, 900.00000, 4895.26, -1, 0, 237.5, -2.97372E-009, -205, 70.1, 32.5, 19, 18.6, 41.85, 0.863158, 1, 9999, 9999, 9999, 9999, 9999, 9999, 9999, 9999, -237.5, 9999, 1900, 0
8, 1800.00000, 4937.11, -1, 0, 237.5, -8.76457E-011, -205, 70.1, 32.5, 19, 18.6, 41.85, 0.863158, 1, 9999, 9999, 9999, 9999, 9999, 9999, 9999, 9999, -237.5, 9999, 1900, 0
8, 2700.00000, 4978.96, 1, 190, 0, -0.000671948, 219.354, 74.8378, 29.354, 19, 26.4838, 41.85, 0.86618, 1, 9999, 9999, 9999, 9999, 9999, 9999, 9999, 9999, 190, 9999, 1900, 0
9, 0.00000, 4912.75, 1, 190, 0, 8.70744E-007, 219.354, 74.8378, 29.354, 19, 26.4838, -66.2095, 0.86618, 1, 9999, 9999, 9999, 9999, 9999, 9999, 9999, 9999, 190, 9999, 1900, 0
9, 900.00000, 4846.54, 1, 190, 0, -1.98218E-009, 219.354, 74.8378, 29.354, 19, 26.4838, -66.2094, 0.86618, 1, 9999, 9999, 9999, 9999, 9999, 9999, 9999, 9999, 190, 9999, 1900, 0
9, 1800.00000, 4780.33, -1, 0, 95.0005, -0.000555166, -79.4902, 40.5593, 15.5103, 19, 6.04902, -66.2094, 0.836735, 1, 9999, 9999, 9999, 9999, 9999, 9999, 9999, 9999, -95, 9999, 1900, 0
9, 2700.00000, 4793.95, -1, 0, 95, -3.56198E-006, -79.4898, 40.5592, 15.5102, 19, 6.04898, 13.6103, 0.836735, 1, 9999, 9999, 9999, 9999, 9999, 9999, 9999, 9999, -95, 9999, 1900, 0
10, 0.00000, 4807.56, -1, 0, 95, 1.28749E-007, -79.4898, 40.5592, 15.5102, 19, 6.04898, 13.6102, 0.836735, 1, 9999, 9999, 9999, 9999, 9999, 9999, 9999, 9999, -95, 9999, 1900, 0
10, 900.00000, 4821.17, -1, 0, 95, 2.42212E-009, -79.4898, 40.5592, 15.5102, 19, 6.04898, 13.6102, 0.836735, 1, 9999, 9999, 9999, 9999, 9999, 9999, 9999, 9999, -95, 9999, 1900, 0
10, 1800.00000, 4834.78, -1, 0, 95, -4.98626E-011, -79.4898, 40.5592, 15.5102, 19, 6.04898, 13.6102, 0.836735, 1, 9999, 9999, 9999, 9999, 9999, 9999, 9999, 9999, -95, 9999, 1900, 0
10, 2700.00000, 4848.39, -1, 0, 570.004, -0.0037141, -519.27, 119.76, 50.7332, 19, 50.027, 13.6102, 0.910995, 1, 9999, 9999, 9999, 9999, 9999, 9999, 9999, 9999, -570, 9999, 1900, 0
11, 0.00000, 4960.95, -1, 0, 570, -3.47607E-005, -519.267, 119.76, 50.733, 19, 50.0267, 112.561, 0.910995, 1, 9999, 9999, 9999, 9999, 9999, 9999, 9999, 9999, -570, 9999, 1900, 0
11, 900.00000, 5073.51, -1, 0, 570, 5.23572E-007, -519.267, 119.76, 50.733, 19, 50.0267, 112.56, 0.910995, 1, 9999, 9999, 9999, 9999, 9999, 9999, 9999, 9999, -570, 9999, 1900, 0
11, 1800.00000, 5186.07, -1, 0, 997.507, -0.00733075, -933.764, 174.22, 63.7437, 19, 91.4764, 112.56, 0.936097, 1, 9999, 9999, 9999, 9999, 9999, 9999, 9999, 9999, -997.5, 9999, 1900, 0
11, 2700.00000, 5391.89, -1, 0, 997.5, -9.60509E-005, -933.757, 174.219, 63.7435, 19, 91.4757, 205.822, 0.936097, 1, 9999, 9999, 9999, 9999, 9999, 9999, 9999, 9999, -997.5, 9999, 1900, 0
12, 0.00000, 5597.71, -1, 0, 997.5, 1.03986E-007, -933.756, 174.219, 63.7435, 19, 91.4756, 205.82, 0.936097, 1, 9999, 9999, 9999, 9999, 9999, 9999, 9999, 9999, -997.5, 9999, 1900, 0
12, 900.00000, 5803.53, -1, 0, 997.5, 2.96049E-008, -933.756, 174.219, 63.7435, 19, 91.4756, 205.82, 0.936097, 1, 9999, 9999, 9999, 9999, 9999, 9999, 9999, 9999, -997.5, 9999, 1900, 0
12, 1800.00000, 6009.35, -1, 0, 997.5, 5.27181E-010, -933.756, 174.219, 63.7435, 19, 91.4756, 205.82, 0.936097, 1, 9999, 9999, 9999, 9999, 9999, 9999, 9999, 9999, -997.5, 9999, 1900, 0
12, 2700.00000, 6215.17, -1, 0, 1377.51, -0.0105713, -1307.55, 217.816, 69.9606, 19, 128.855, 205.82, 0.949212, 1, 9999, 9999, 9999, 9999, 9999, 9999, 9999, 9999, -1377.5, 9999, 1900, 0
13, 0.00000, 6505.09, -1, 0, 1377.5, -0.000164953, -1307.54, 217.815, 69.9606, 19, 128.854, 289.924, 0.949212, 1, 9999, 9999, 9999, 9999, 9999, 9999, 9999, 9999, -1377.5, 9999, 1900, 0
13, 900.00000, 6795.01, -1, 0, 1377.5, -1.20075E-006, -1307.54, 217.815, 69.9606, 19, 128.854, 289.921, 0.949212, 1, 9999, 9999, 9999, 9999, 9999, 9999, 9999, 9999, -1377.5, 9999, 1900, 0
13, 1800.00000, 7084.94, -1, 0, 1187.51, -0.00595724, -1119.35, 197.188, 68.1523, 19, 110.035, 289.921, 0.942609, 1, 9999, 9999, 9999, 9999, 9999, 9999, 9999, 9999, -1187.5, 9999, 1900, 0
13, 2700.00000, 7332.52, -1, 0, 1187.5, -4.65705E-005, -1119.35, 197.187, 68.1522, 19, 110.035, 247.579, 0.942609, 1, 9999, 9999, 9999, 9999, 9999, 9999, 9999, 9999, -1187.5, 9999, 1900, 0
14, 0.00000, 7580.09, -1, 0, 1187.5, 1.54601E-007, -1119.35, 197.187, 68.1522, 19, 110.035, 247.578, 0.942609, 1, 9999, 9999, 9999, 9999, 9999, 9999, 9999, 9999, -1187.5, 9999, 1900, 0
14, 900.00000, 7827.67, -1, 0, 1187.5, 1.45124E-008, -1119.35, 197.187, 68.1522, 19, 110.035, 247.578, 0.942609, 1, 9999, 9999, 9999, 9999, 9999, 9999, 9999, 9999, -1187.5, 9999, 1900, 0
14, 1800.00000, 8075.25, -1, 0, 1187.5, 2.49275E-010, -1119.35, 197.187, 68.1522, 19, 110.035, 247.578, 0.942609, 1, 9999, 9999, 9999, 9999, 9999, 9999, 9999, 9999, -1187.5, 9999, 1900, 0
14, 2700.00000, 8322.83, -1, 0, 1092.5, -0.035788, -1026.23, 185.993, 66.2696, 19, 100.723, 247.578, 0.939342, 1, 9999, 9999, 9999, 9999, 9999, 9999, 9999, 9999, -1092.5, 9999, 1900, 0
15, 0.00000, 8549.46, -1, 0, 1092.5, -7.42503E-005, -1026.23, 185.993, 66.2695, 19, 100.723, 226.628, 0.939341, 1, 9999, 9999, 9999, 9999, 9999, 9999, 9999, 9999, -1092.5, 9999, 1900, 0
15, 900.00000, 8776.08, -1, 0, 1092.5, -2.89207E-007, -1026.23, 185.993, 66.2695, 19, 100.723, 226.627, 0.939341, 1, 9999, 9999, 9999, 9999, 9999, 9999, 9999, 9999, -1092.5, 9999, 1900, 0
15, 1800.00000, 9002.71, -1, 0, 1140, 0.00125142, -1072.71, 191.662, 67.2916, 19, 105.371, 226.627, 0.940972, 1, 9999, 9999, 9999, 9999, 9999, 9999, 9999, 9999, -1140, 9999, 1900, 0
15, 2700.00000, 9239.79, -1, 0, 1140, 1.00423E-005, -1072.71, 191.663, 67.2917, 19, 105.371, 237.084, 0.940972, 1, 9999, 9999, 9999, 9999, 9999, 9999, 9999, 9999, -1140, 9999, 1900, 0
16, 0.00000, 9476.88, -1, 0, 1140, 1.56665E-007, -1072.71, 191.663, 67.2917, 19, 105.371, 237.084, 0.940972, 1, 9999, 9999, 9999, 9999, 9999, 9999, 9999, 9999, -1140, 9999, 1900, 0
16, 900.00000, 9713.96, -1, 0, 1140, 1.12227E-009, -1072.71, 191.663, 67.2917, 19, 105.371, 237.084, 0.940972, 1, 9999, 9999, 9999, 9999, 9999, 9999, 9999, 9999, -1140, 9999, 1900, 0
16, 1800.00000, 9951.05, -1, 0, 1140, -1.98212E-011, -1072.71, 191.663, 67.2917, 19, 105.371, 237.084, 0.940972, 1, 9999, 9999, 9999, 9999, 9999, 9999, 9999, 9999, -1140, 9999, 1900, 0
16, 2700.00000, 10188.1, -1, 0, 1045, -0.00101501, -979.917, 180.178, 65.0866, 19, 96.0917, 237.084, 0.937716, 1, 9999, 9999, 9999, 9999, 9999, 9999, 9999, 9999, -1045, 9999, 1900, 0
17, 0.00000, 10404.3, -1, 0, 1045, 7.55028E-006, -979.914, 180.178, 65.0865, 19, 96.0913, 216.206, 0.937716, 1, 9999, 9999, 9999, 9999, 9999, 9999, 9999, 9999, -1045, 9999, 1900, 0
17, 900.00000, 10620.5, -1, 0, 1045, 1.46177E-007, -979.914, 180.178, 65.0865, 19, 96.0913, 216.206, 0.937716, 1, 9999, 9999, 9999, 9999, 9999, 9999, 9999, 9999, -1045, 9999, 1900, 0
17, 1800.00000, 10836.7, -1, 0, 522.497, 0.00361792, -474.13, 112.88, 48.3668, 19, 45.513, 216.206, 0.907431, 1, 9999, 9999, 9999, 9999, 9999, 9999, 9999, 9999, -522.5, 9999, 1900, 0
17, 2700.00000, 10939.2, -1, 0, 522.5, 3.7884E-005, -474.133, 112.88, 48.367, 19, 45.5133, 102.404, 0.907432, 1, 9999, 9999, 9999, 9999, 9999, 9999, 9999, 9999, -522.5, 9999, 1900, 0
18, 0.00000, 11041.6, -1, 0, 522.5, -4.28679E-007, -474.133, 112.88, 48.367, 19, 45.5133, 102.405, 0.907432, 1, 9999, 9999, 9999, 9999, 9999, 9999, 9999, 9999, -522.5, 9999, 1900, 0
18, 900.00000, 11144, -1, 0, 522.5, -2.81032E-008, -474.133, 112.88, 48.367, 19, 45.5133, 102.405, 0.907432, 1, 9999, 9999, 9999, 9999, 9999, 9999, 9999, 9999, -522.5, 9999, 1900, 0
18, 1800.00000, 11246.4, -1, 0, 522.5, -1.30531E-010, -474.133, 112.88, 48.367, 19, 45.5133, 102.405, 0.907432, 1, 9999, 9999, 9999, 9999, 9999, 9999, 9999, 9999, -522.5, 9999, 1900, 0
18, 2700.00000, 11348.8, 1, 522.498, 0, 0.000500576, 570.987, 133.044, 48.4894, 19, 65.5541, 102.405, 0.915078, 1, 9999, 9999, 9999, 9999, 9999, 9999, 9999, 9999, 522.5, 9999, 1900, 0
19, 0.00000, 11184.9, 1, 522.5, 0, 6.5337E-007, 570.99, 133.044, 48.4895, 19, 65.5544, -163.885, 0.915078, 1, 9999, 9999, 9999, 9999, 9999, 9999, 9999, 9999, 522.5, 9999, 1900, 0
19, 900.00000, 11021, 1, 522.5, 0, 1.27788E-009, 570.99, 133.044, 48.4895, 19, 65.5544, -163.886, 0.915078, 1, 9999, 9999, 9999, 9999, 9999, 9999, 9999, 9999, 522.5, 9999, 1900, 0
19, 1800.00000, 10857.1, 1, 1377.5, 0, 0.00249948, 1443.92, 247.971, 66.4244, 19, 162.547, -163.886, 0.953997, 1, 9999, 9999, 9999, 9999, 9999, 9999, 9999, 9999, 1377.5, 9999, 1900, 0
19, 2700.00000, 10450.7, 1, 1377.5, 0, 3.22825E-006, 1443.92, 247.971, 66.4244, 19, 162.547, -406.367, 0.953997, 1, 9999, 9999, 9999, 9999, 9999, 9999, 9999, 9999, 1377.5, 9999, 1900, 0
20, 0.00000, 10044.4, 1, 1377.5, 0, 7.28781E-009, 1443.92, 247.971, 66.4244, 19, 162.547, -406.368, 0.953997, 1, 9999, 9999, 9999, 9999, 9999, 9999, 9999, 9999, 1377.5, 9999, 1900, 0
20, 900.00000, 9638.01, 1, 1377.5, 0, 2.73849E-011, 1443.92, 247.971, 66.4244, 19, 162.547, -406.368, 0.953997, 1, 9999, 9999, 9999, 9999, 9999, 9999, 9999, 9999, 1377.5, 9999, 1900, 0
20, 1800.00000, 9231.65, 1, 1377.5, 0, 2.06637E-012, 1443.92, 247.971, 66.4244, 19, 162.547, -406.368, 0.953997, 1, 9999, 9999, 9999, 9999, 9999, 9999, 9999, 9999, 1377.5, 9999, 1900, 0
20, 2700.00000, 8825.28, 1, 1567.5, 0, 0.00334923, 1631.81, 266.733, 64.31, 19, 183.423, -406.368, 0.96059, 1, 9999, 9999, 9999, 9999, 9999, 9999, 9999, 9999, 1567.5, 9999, 1900, 0
21, 0.00000, 8366.72, 1, 1567.5, 0, 2.25769E-006, 1631.81, 266.733, 64.3099, 19, 183.423, -458.557, 0.96059, 1, 9999, 9999, 9999, 9999, 9999, 9999, 9999, 9999, 1567.5, 9999, 1900, 0
21, 900.00000, 7908.16, 1, 1567.5, 0, 4.3303E-009, 1631.81, 266.733, 64.3099, 19, 183.423, -458.558, 0.96059, 1, 9999, 9999, 9999, 9999, 9999, 9999, 9999, 9999, 1567.5, 9999, 1900, 0
21, 1800.00000, 7449.6, 1, 1092.49, 0, 0.00252761, 1157.37, 214.587, 64.8789, 19, 130.708, -458.558, 0.943943, 1, 9999, 9999, 9999, 9999, 9999, 9999, 9999, 9999, 1092.5, 9999, 1900, 0
21, 2700.00000, 7122.83, 1, 1092.5, 0, -6.2484E-007, 1157.38, 214.588, 64.8791, 19, 130.709, -326.77, 0.943943, 1, 9999, 9999, 9999, 9999, 9999, 9999, 9999, 9999, 1092.5, 9999, 1900, 0
22, 0.00000, 6796.06, 1, 1092.5, 0, -1.00397E-008, 1157.38, 214.588, 64.8791, 19, 130.709, -326.772, 0.943943, 1, 9999, 9999, 9999, 9999, 9999, 9999, 9999, 9999, 1092.5, 9999, 1900, 0
22, 900.00000, 6469.29, 1, 1092.5, 0, -5.88188E-011, 1157.38, 214.588, 64.8791, 19, 130.709, -326.772, 0.943943, 1, 9999, 9999, 9999, 9999, 9999, 9999, 9999, 9999, 1092.5, 9999, 1900, 0
22, 1800.00000, 6142.52, 1, 1092.5, 0, -3.47427E-013, 1157.38, 214.588, 64.8791, 19, 130.709, -326.772, 0.943943, 1, 9999, 9999, 9999, 9999, 9999, 9999, 9999, 9999, 1092.5, 9999, 1900, 0
22, 2700.00000, 5815.75, 1, 1045, 0, -0.000147505, 1109.05, 208.39, 64.0506, 19, 125.339, -326.772, 0.942248, 1, 9999, 9999, 9999, 9999, 9999, 9999, 9999, 9999, 1045, 9999, 1900, 0
23, 0.00000, 5502.4, 1, 1045, 0, 5.34162E-007, 1109.05, 208.39, 64.0506, 19, 125.339, -313.349, 0.942247, 1, 9999, 9999, 9999, 9999, 9999, 9999, 9999, 9999, 1045, 9999, 1900, 0
23, 900.00000, 5189.05, 1, 1045, 0, 6.97495E-009, 1109.05, 208.39, 64.0506, 19, 125.339, -313.347, 0.942247, 1, 9999, 9999, 9999, 9999, 9999, 9999, 9999, 9999, 1045, 9999, 1900, 0
23, 1800.00000, 4875.7, 1, 1424.99, 0, 0.0017813, 1491.12, 252.917, 66.1262, 19, 167.791, -313.347, 0.955653, 1, 9999, 9999, 9999, 9999, 9999, 9999, 9999, 9999, 1425, 9999, 1900, 0
23, 2700.00000, 4456.22, 1, 1425, 0, 3.68471E-006, 1491.13, 252.918, 66.1262, 19, 167.792, -419.478, 0.955654, 1, 9999, 9999, 9999, 9999, 9999, 9999, 9999, 9999, 1425, 9999, 1900, 0
24, 0.00000, 4036.75, 1, 1425, 0, -1.14018E-008, 1491.13, 252.918, 66.1262, 19, 167.792, -419.479, 0.955654, 1, 9999, 9999, 9999, 9999, 9999, 9999, 9999, 9999, 1425, 9999, 1900, 0
