hour, t(sec), |V|1 (volts), |V|2 (volts), |I|1 (amps), |I|2 (amps)
0, 900.00000, 2438.93, 0, 13.8625, 13.8625
0, 1800.00000, 2438.93, 0, 13.8624, 13.8624
0, 2700.00000, 2439.87, 0, 12.409, 12.409
1, 0.00000, 2439.87, 0, 12.409, 12.409
1, 900.00000, 2439.87, 0, 12.409, 12.409
1, 1800.00000, 2441.82, 0, 11.4577, 11.4577
1, 2700.00000, 2441.82, 0, 11.4577, 11.4577
2, 0.00000, 2441.82, 0, 11.4577, 11.4577
2, 900.00000, 2441.82, 0, 11.4577, 11.4577
2, 1800.00000, 2441.82, 0, 11.4577, 11.4577
2, 2700.00000, 2441.73, 0, 11.1485, 11.1485
3, 0.00000, 2441.73, 0, 11.1486, 11.1486
3, 900.00000, 2441.73, 0, 11.1486, 11.1486
3, 1800.00000, 2442.4, 0, 10.6805, 10.6805
3, 2700.00000, 2442.4, 0, 10.6805, 10.6805
4, 0.00000, 2442.4, 0, 10.6805, 10.6805
4, 900.00000, 2442.4, 0, 10.6805, 10.6805
4, 1800.00000, 2442.4, 0, 10.6805, 10.6805
4, 2700.00000, 2442.22, 0, 10.6259, 10.6259
5, 0.00000, 2442.22, 0, 10.626, 10.626
5, 900.00000, 2442.22, 0, 10.626, 10.626
5, 1800.00000, 2441.96, 0, 11.0339, 11.0339
5, 2700.00000, 2441.96, 0, 11.034, 11.034
6, 0.00000, 2441.96, 0, 11.034, 11.034
6, 900.00000, 2441.96, 0, 11.034, 11.034
6, 1800.00000, 2441.96, 0, 11.034, 11.034
6, 2700.00000, 2440.79, 0, 12.0379, 12.0379
7, 0.00000, 2440.79, 0, 12.0379, 12.0379
7, 900.00000, 2440.79, 0, 12.0379, 12.0379
7, 1800.00000, 2439.12, 0, 13.7091, 13.7091
7, 2700.00000, 2439.12, 0, 13.7091, 13.7091
8, 0.00000, 2439.12, 0, 13.7091, 13.7091
8, 900.00000, 2439.12, 0, 13.7091, 13.7091
8, 1800.00000, 2439.12, 0, 13.7091, 13.7091
8, 2700.00000, 2437.4, 0, 15.2655, 15.2655
9, 0.00000, 2437.4, 0, 15.2655, 15.2655
9, 900.00000, 2437.4, 0, 15.2655, 15.2655
9, 1800.00000, 2436.62, 0, 16.1514, 16.1514
9, 2700.00000, 2436.62, 0, 16.1514, 16.1514
10, 0.00000, 2436.62, 0, 16.1514, 16.1514
10, 900.00000, 2436.62, 0, 16.1514, 16.1514
10, 1800.00000, 2436.62, 0, 16.1514, 16.1514
10, 2700.00000, 2450.5, 0, 17.155, 17.155
11, 0.00000, 2450.5, 0, 17.1549, 17.1549
11, 900.00000, 2450.5, 0, 17.1549, 17.1549
11, 1800.00000, 2449.52, 0, 18.0563, 18.0563
11, 2700.00000, 2449.52, 0, 18.0564, 18.0564
12, 0.00000, 2449.52, 0, 18.0564, 18.0564
12, 900.00000, 2449.52, 0, 18.0564, 18.0564
12, 1800.00000, 2449.52, 0, 18.0564, 18.0564
12, 2700.00000, 2449.67, 0, 17.9823, 17.9823
13, 0.00000, 2449.67, 0, 17.9822, 17.9822
13, 900.00000, 2449.67, 0, 17.9822, 17.9822
13, 1800.00000, 2449.58, 0, 17.8915, 17.8915
13, 2700.00000, 2449.58, 0, 17.8916, 17.8916
14, 0.00000, 2449.58, 0, 17.8916, 17.8916
14, 900.00000, 2449.58, 0, 17.8916, 17.8916
14, 1800.00000, 2449.58, 0, 17.8916, 17.8916
14, 2700.00000, 2449.64, 0, 18.0702, 18.0702
15, 0.00000, 2449.64, 0, 18.0701, 18.0701
15, 900.00000, 2449.64, 0, 18.0701, 18.0701
15, 1800.00000, 2449.29, 0, 18.2404, 18.2404
15, 2700.00000, 2449.29, 0, 18.2406, 18.2406
16, 0.00000, 2449.29, 0, 18.2407, 18.2407
16, 900.00000, 2449.29, 0, 18.2407, 18.2407
16, 1800.00000, 2449.29, 0, 18.2407, 18.2407
16, 2700.00000, 2449.24, 0, 18.2593, 18.2593
17, 0.00000, 2449.24, 0, 18.2593, 18.2593
17, 900.00000, 2449.24, 0, 18.2593, 18.2593
17, 1800.00000, 2450.21, 0, 17.4855, 17.4855
17, 2700.00000, 2450.21, 0, 17.4854, 17.4854
18, 0.00000, 2450.21, 0, 17.4854, 17.4854
18, 900.00000, 2450.21, 0, 17.4854, 17.4854
18, 1800.00000, 2450.21, 0, 17.4854, 17.4854
18, 2700.00000, 2450.58, 0, 17.0815, 17.0815
19, 0.00000, 2450.58, 0, 17.0813, 17.0813
19, 900.00000, 2450.58, 0, 17.0813, 17.0813
19, 1800.00000, 2451.01, 0, 16.6589, 16.6589
19, 2700.00000, 2451.01, 0, 16.6587, 16.6587
20, 0.00000, 2451.01, 0, 16.6587, 16.6587
20, 900.00000, 2451.01, 0, 16.6587, 16.6587
20, 1800.00000, 2451.01, 0, 16.6587, 16.6587
20, 2700.00000, 2451.68, 0, 15.9792, 15.9792
21, 0.00000, 2451.69, 0, 15.9792, 15.9792
21, 900.00000, 2451.69, 0, 15.9792, 15.9792
21, 1800.00000, 2451.69, 0, 15.9792, 15.9792
21, 2700.00000, 2451.69, 0, 15.9792, 15.9792
22, 0.00000, 2451.69, 0, 15.9792, 15.9792
22, 900.00000, 2451.69, 0, 15.9792, 15.9792
22, 1800.00000, 2451.69, 0, 15.9792, 15.9792
22, 2700.00000, 2452.64, 0, 15.0977, 15.0977
23, 0.00000, 2452.64, 0, 15.0977, 15.0977
23, 900.00000, 2452.64, 0, 15.0977, 15.0977
23, 1800.00000, 2454.05, 0, 13.777, 13.777
23, 2700.00000, 2454.05, 0, 13.777, 13.777
24, 0.00000, 2454.05, 0, 13.777, 13.777
24, 900.00000, 2454.05, 0, 13.777, 13.777
24, 1800.00000, 2454.05, 0, 13.777, 13.777
24, 2700.00000, 2455.01, 0, 12.3325, 12.3325
25, 0.00000, 2455.01, 0, 12.3325, 12.3325
25, 900.00000, 2455.01, 0, 12.3325, 12.3325
25, 1800.00000, 2456.89, 0, 11.3874, 11.3874
25, 2700.00000, 2456.89, 0, 11.3875, 11.3875
26, 0.00000, 2456.89, 0, 11.3875, 11.3875
26, 900.00000, 2456.89, 0, 11.3875, 11.3875
26, 1800.00000, 2456.89, 0, 11.3875, 11.3875
26, 2700.00000, 2456.8, 0, 11.0802, 11.0802
27, 0.00000, 2456.8, 0, 11.0802, 11.0802
27, 900.00000, 2456.8, 0, 11.0802, 11.0802
27, 1800.00000, 2457.46, 0, 10.615, 10.615
27, 2700.00000, 2457.46, 0, 10.615, 10.615
28, 0.00000, 2457.46, 0, 10.615, 10.615
28, 900.00000, 2457.46, 0, 10.615, 10.615
28, 1800.00000, 2457.46, 0, 10.615, 10.615
28, 2700.00000, 2457.28, 0, 10.5607, 10.5607
29, 0.00000, 2457.28, 0, 10.5608, 10.5608
29, 900.00000, 2457.28, 0, 10.5608, 10.5608
29, 1800.00000, 2457.03, 0, 10.9663, 10.9663
29, 2700.00000, 2457.03, 0, 10.9663, 10.9663
30, 0.00000, 2457.03, 0, 10.9663, 10.9663
30, 900.00000, 2457.03, 0, 10.9663, 10.9663
30, 1800.00000, 2457.03, 0, 10.9663, 10.9663
30, 2700.00000, 2455.86, 0, 11.964, 11.964
31, 0.00000, 2455.86, 0, 11.964, 11.964
31, 900.00000, 2455.86, 0, 11.964, 11.964
31, 1800.00000, 2454.19, 0, 13.625, 13.625
31, 2700.00000, 2454.19, 0, 13.6249, 13.6249
32, 0.00000, 2454.19, 0, 13.6249, 13.6249
32, 900.00000, 2454.19, 0, 13.6249, 13.6249
32, 1800.00000, 2454.19, 0, 13.6249, 13.6249
32, 2700.00000, 2452.47, 0, 15.1716, 15.1716
33, 0.00000, 2452.47, 0, 15.1717, 15.1717
33, 900.00000, 2452.48, 0, 15.1717, 15.1717
33, 1800.00000, 2451.7, 0, 16.052, 16.052
33, 2700.00000, 2451.7, 0, 16.0521, 16.0521
34, 0.00000, 2451.7, 0, 16.0521, 16.0521
34, 900.00000, 2451.7, 0, 16.0521, 16.0521
34, 1800.00000, 2451.7, 0, 16.0521, 16.0521
34, 2700.00000, 2450.51, 0, 17.1549, 17.1549
35, 0.00000, 2450.52, 0, 17.1548, 17.1548
35, 900.00000, 2450.52, 0, 17.1548, 17.1548
35, 1800.00000, 2449.54, 0, 18.0562, 18.0562
35, 2700.00000, 2449.54, 0, 18.0562, 18.0562
36, 0.00000, 2449.54, 0, 18.0562, 18.0562
36, 900.00000, 2449.54, 0, 18.0562, 18.0562
36, 1800.00000, 2449.54, 0, 18.0562, 18.0562
36, 2700.00000, 2449.69, 0, 17.9821, 17.9821
37, 0.00000, 2449.69, 0, 17.9821, 17.9821
37, 900.00000, 2449.69, 0, 17.982, 17.982
37, 1800.00000, 2449.6, 0, 17.8914, 17.8914
37, 2700.00000, 2449.6, 0, 17.8915, 17.8915
38, 0.00000, 2449.6, 0, 17.8915, 17.8915
38, 900.00000, 2449.6, 0, 17.8915, 17.8915
38, 1800.00000, 2449.6, 0, 17.8915, 17.8915
38, 2700.00000, 2449.66, 0, 18.07, 18.07
39, 0.00000, 2449.66, 0, 18.07, 18.07
39, 900.00000, 2449.66, 0, 18.07, 18.07
39, 1800.00000, 2449.31, 0, 18.2403, 18.2403
39, 2700.00000, 2449.31, 0, 18.2405, 18.2405
40, 0.00000, 2449.31, 0, 18.2405, 18.2405
40, 900.00000, 2449.31, 0, 18.2405, 18.2405
40, 1800.00000, 2449.31, 0, 18.2405, 18.2405
40, 2700.00000, 2449.26, 0, 18.2591, 18.2591
41, 0.00000, 2449.26, 0, 18.2592, 18.2592
41, 900.00000, 2449.26, 0, 18.2592, 18.2592
41, 1800.00000, 2450.23, 0, 17.4853, 17.4853
41, 2700.00000, 2450.23, 0, 17.4853, 17.4853
42, 0.00000, 2450.23, 0, 17.4853, 17.4853
42, 900.00000, 2450.23, 0, 17.4853, 17.4853
42, 1800.00000, 2450.23, 0, 17.4853, 17.4853
42, 2700.00000, 2450.6, 0, 17.0813, 17.0813
43, 0.00000, 2450.6, 0, 17.0812, 17.0812
43, 900.00000, 2450.6, 0, 17.0812, 17.0812
43, 1800.00000, 2451.03, 0, 16.6587, 16.6587
43, 2700.00000, 2451.03, 0, 16.6586, 16.6586
44, 0.00000, 2451.03, 0, 16.6586, 16.6586
44, 900.00000, 2451.03, 0, 16.6586, 16.6586
44, 1800.00000, 2451.03, 0, 16.6586, 16.6586
44, 2700.00000, 2451.7, 0, 15.9791, 15.9791
45, 0.00000, 2451.7, 0, 15.9791, 15.9791
45, 900.00000, 2451.7, 0, 15.9791, 15.9791
45, 1800.00000, 2451.7, 0, 15.9791, 15.9791
45, 2700.00000, 2451.7, 0, 15.9791, 15.9791
46, 0.00000, 2451.7, 0, 15.9791, 15.9791
46, 900.00000, 2451.7, 0, 15.9791, 15.9791
46, 1800.00000, 2451.7, 0, 15.9791, 15.9791
46, 2700.00000, 2452.65, 0, 15.0976, 15.0976
47, 0.00000, 2452.65, 0, 15.0976, 15.0976
47, 900.00000, 2452.65, 0, 15.0976, 15.0976
47, 1800.00000, 2454.06, 0, 13.7769, 13.7769
47, 2700.00000, 2454.07, 0, 13.7769, 13.7769
48, 0.00000, 2454.07, 0, 13.7769, 13.7769
