hour, t(sec), |V|1 (volts), |V|2 (volts), |I|1 (amps), |I|2 (amps)
0, 900.00000, 2463.99, 0, 13.722, 13.722
0, 1800.00000, 2463.99, 0, 13.7214, 13.7214
0, 2700.00000, 2473.13, 0, 12.242, 12.242
1, 0.00000, 2473.13, 0, 12.2421, 12.2421
1, 900.00000, 2473.13, 0, 12.2421, 12.2421
1, 1800.00000, 2484.11, 0, 11.2628, 11.2628
1, 2700.00000, 2484.11, 0, 11.2626, 11.2626
2, 0.00000, 2484.11, 0, 11.2626, 11.2626
2, 900.00000, 2484.11, 0, 11.2626, 11.2626
2, 1800.00000, 2484.11, 0, 11.2626, 11.2626
2, 2700.00000, 2502.89, 0, 10.8761, 10.8761
3, 0.00000, 2502.89, 0, 10.8762, 10.8762
3, 900.00000, 2502.89, 0, 10.8762, 10.8762
3, 1800.00000, 2495.22, 0, 10.4542, 10.4542
3, 2700.00000, 2495.22, 0, 10.4544, 10.4544
4, 0.00000, 2495.22, 0, 10.4544, 10.4544
4, 900.00000, 2495.22, 0, 10.4544, 10.4544
4, 1800.00000, 2495.22, 0, 10.4544, 10.4544
4, 2700.00000, 2483.98, 0, 10.4473, 10.4473
5, 0.00000, 2483.98, 0, 10.4473, 10.4473
5, 900.00000, 2483.98, 0, 10.4473, 10.4473
5, 1800.00000, 2471.7, 0, 10.9013, 10.9013
5, 2700.00000, 2471.7, 0, 10.9013, 10.9013
6, 0.00000, 2471.7, 0, 10.9013, 10.9013
6, 900.00000, 2471.7, 0, 10.9013, 10.9013
6, 1800.00000, 2471.7, 0, 10.9013, 10.9013
6, 2700.00000, 2475.97, 0, 11.8672, 11.8672
7, 0.00000, 2475.98, 0, 11.8668, 11.8668
7, 900.00000, 2475.98, 0, 11.8668, 11.8668
7, 1800.00000, 2478.56, 0, 13.4915, 13.4915
7, 2700.00000, 2478.56, 0, 13.4909, 13.4909
8, 0.00000, 2478.56, 0, 13.491, 13.491
8, 900.00000, 2478.56, 0, 13.491, 13.491
8, 1800.00000, 2478.56, 0, 13.491, 13.491
8, 2700.00000, 2486.53, 0, 14.9641, 14.9641
9, 0.00000, 2486.53, 0, 14.9639, 14.9639
9, 900.00000, 2486.53, 0, 14.9639, 14.9639
9, 1800.00000, 2491.2, 0, 15.7977, 15.7977
9, 2700.00000, 2491.22, 0, 15.7974, 15.7974
10, 0.00000, 2491.22, 0, 15.7974, 15.7974
10, 900.00000, 2491.22, 0, 15.7974, 15.7974
10, 1800.00000, 2491.22, 0, 15.7974, 15.7974
10, 2700.00000, 2497.93, 0, 16.8293, 16.8293
11, 0.00000, 2497.95, 0, 16.8291, 16.8291
11, 900.00000, 2497.95, 0, 16.8291, 16.8291
11, 1800.00000, 2484.16, 0, 17.8048, 17.8048
11, 2700.00000, 2484.17, 0, 17.8045, 17.8045
12, 0.00000, 2484.17, 0, 17.8045, 17.8045
12, 900.00000, 2484.17, 0, 17.8045, 17.8045
12, 1800.00000, 2484.17, 0, 17.8045, 17.8045
12, 2700.00000, 2480.98, 0, 17.7555, 17.7555
13, 0.00000, 2480.99, 0, 17.7552, 17.7552
13, 900.00000, 2480.99, 0, 17.7552, 17.7552
13, 1800.00000, 2487.79, 0, 17.6171, 17.6171
13, 2700.00000, 2487.8, 0, 17.6168, 17.6168
14, 0.00000, 2487.8, 0, 17.6168, 17.6168
14, 900.00000, 2487.8, 0, 17.6168, 17.6168
14, 1800.00000, 2487.8, 0, 17.6168, 17.6168
14, 2700.00000, 2480.02, 0, 17.8483, 17.8483
15, 0.00000, 2480, 0, 17.8488, 17.8488
15, 900.00000, 2480, 0, 17.8488, 17.8488
15, 1800.00000, 2465.55, 0, 18.1205, 18.1205
15, 2700.00000, 2465.56, 0, 18.1203, 18.1203
16, 0.00000, 2465.56, 0, 18.1202, 18.1202
16, 900.00000, 2465.56, 0, 18.1202, 18.1202
16, 1800.00000, 2465.56, 0, 18.1202, 18.1202
16, 2700.00000, 2473.79, 0, 18.0786, 18.0786
17, 0.00000, 2473.8, 0, 18.078, 18.078
17, 900.00000, 2473.8, 0, 18.078, 18.078
17, 1800.00000, 2481.52, 0, 17.2646, 17.2646
17, 2700.00000, 2481.49, 0, 17.265, 17.265
18, 0.00000, 2481.49, 0, 17.265, 17.265
18, 900.00000, 2481.49, 0, 17.265, 17.265
18, 1800.00000, 2481.49, 0, 17.265, 17.265
18, 2700.00000, 2467.76, 0, 16.9626, 16.9626
19, 0.00000, 2467.76, 0, 16.9624, 16.9624
19, 900.00000, 2467.76, 0, 16.9624, 16.9624
19, 1800.00000, 2489.82, 0, 16.3991, 16.3991
19, 2700.00000, 2489.82, 0, 16.399, 16.399
20, 0.00000, 2489.82, 0, 16.399, 16.399
20, 900.00000, 2489.82, 0, 16.399, 16.399
20, 1800.00000, 2489.82, 0, 16.399, 16.399
20, 2700.00000, 2502.45, 0, 15.6546, 15.6546
21, 0.00000, 2502.45, 0, 15.655, 15.655
21, 900.00000, 2502.45, 0, 15.655, 15.655
21, 1800.00000, 2502.45, 0, 15.655, 15.655
21, 2700.00000, 2502.45, 0, 15.655, 15.655
22, 0.00000, 2502.45, 0, 15.655, 15.655
22, 900.00000, 2502.45, 0, 15.655, 15.655
22, 1800.00000, 2502.45, 0, 15.655, 15.655
22, 2700.00000, 2488.3, 0, 14.881, 14.881
23, 0.00000, 2488.3, 0, 14.8814, 14.8814
23, 900.00000, 2488.3, 0, 14.8814, 14.8814
23, 1800.00000, 2496, 0, 13.5456, 13.5456
23, 2700.00000, 2496, 0, 13.5454, 13.5454
24, 0.00000, 2496, 0, 13.5454, 13.5454
