hour, t(sec), |V|1 (volts), |V|2 (volts), |I|1 (amps), |I|2 (amps)
0, 900.00000, 2398.9, 0, 14.081, 14.081
0, 1800.00000, 2398.9, 0, 14.0808, 14.0808
0, 2700.00000, 2403.39, 0, 12.6331, 12.6331
1, 0.00000, 2403.39, 0, 12.633, 12.633
1, 900.00000, 2403.39, 0, 12.633, 12.633
1, 1800.00000, 2410.54, 0, 11.7086, 11.7086
1, 2700.00000, 2410.54, 0, 11.7086, 11.7086
2, 0.00000, 2410.54, 0, 11.7086, 11.7086
2, 900.00000, 2410.54, 0, 11.7086, 11.7086
2, 1800.00000, 2410.54, 0, 11.7086, 11.7086
2, 2700.00000, 2423.2, 0, 11.4521, 11.4521
3, 0.00000, 2423.21, 0, 11.4521, 11.4521
3, 900.00000, 2423.21, 0, 11.4521, 11.4521
3, 1800.00000, 2429.01, 0, 11.0004, 11.0004
3, 2700.00000, 2429.02, 0, 11.0006, 11.0006
4, 0.00000, 2429.02, 0, 11.0006, 11.0006
4, 900.00000, 2429.02, 0, 11.0006, 11.0006
4, 1800.00000, 2429.02, 0, 11.0006, 11.0006
4, 2700.00000, 2421.29, 0, 10.9088, 10.9088
5, 0.00000, 2421.29, 0, 10.9088, 10.9088
5, 900.00000, 2421.29, 0, 10.9088, 10.9088
5, 1800.00000, 2413.01, 0, 11.2877, 11.2877
5, 2700.00000, 2413.01, 0, 11.2878, 11.2878
6, 0.00000, 2413.01, 0, 11.2878, 11.2878
6, 900.00000, 2413.01, 0, 11.2878, 11.2878
6, 1800.00000, 2413.01, 0, 11.2878, 11.2878
6, 2700.00000, 2409.01, 0, 12.2886, 12.2886
7, 0.00000, 2409.01, 0, 12.2884, 12.2884
7, 900.00000, 2409.01, 0, 12.2884, 12.2884
7, 1800.00000, 2404.2, 0, 13.9569, 13.9569
7, 2700.00000, 2404.21, 0, 13.957, 13.957
8, 0.00000, 2404.21, 0, 13.957, 13.957
8, 900.00000, 2404.21, 0, 13.957, 13.957
8, 1800.00000, 2404.21, 0, 13.957, 13.957
8, 2700.00000, 2413.09, 0, 15.588, 15.588
9, 0.00000, 2413.09, 0, 15.588, 15.588
9, 900.00000, 2413.09, 0, 15.588, 15.588
9, 1800.00000, 2423.35, 0, 16.558, 16.558
9, 2700.00000, 2423.33, 0, 16.5573, 16.5573
10, 0.00000, 2423.33, 0, 16.5573, 16.5573
10, 900.00000, 2423.33, 0, 16.5573, 16.5573
10, 1800.00000, 2423.33, 0, 16.5573, 16.5573
10, 2700.00000, 2437.93, 0, 17.7933, 17.7933
11, 0.00000, 2437.91, 0, 17.7926, 17.7926
11, 900.00000, 2437.91, 0, 17.7926, 17.7926
11, 1800.00000, 2431.96, 0, 18.6751, 18.6751
11, 2700.00000, 2431.94, 0, 18.6742, 18.6742
12, 0.00000, 2431.94, 0, 18.6742, 18.6742
12, 900.00000, 2431.94, 0, 18.6742, 18.6742
12, 1800.00000, 2431.94, 0, 18.6742, 18.6742
12, 2700.00000, 2431.08, 0, 18.5928, 18.5928
13, 0.00000, 2431.06, 0, 18.5919, 18.5919
13, 900.00000, 2431.06, 0, 18.5919, 18.5919
13, 1800.00000, 2435.55, 0, 18.5321, 18.5321
13, 2700.00000, 2435.54, 0, 18.5316, 18.5316
14, 0.00000, 2435.54, 0, 18.5316, 18.5316
14, 900.00000, 2435.54, 0, 18.5316, 18.5316
14, 1800.00000, 2435.54, 0, 18.5316, 18.5316
14, 2700.00000, 2437.5, 0, 18.7324, 18.7324
15, 0.00000, 2437.49, 0, 18.7319, 18.7319
15, 900.00000, 2437.49, 0, 18.7319, 18.7319
15, 1800.00000, 2432.2, 0, 18.8651, 18.8651
15, 2700.00000, 2432.2, 0, 18.865, 18.865
16, 0.00000, 2432.2, 0, 18.865, 18.865
16, 900.00000, 2432.2, 0, 18.865, 18.865
16, 1800.00000, 2432.2, 0, 18.865, 18.865
16, 2700.00000, 2412.07, 0, 18.7274, 18.7274
17, 0.00000, 2412.07, 0, 18.7276, 18.7276
17, 900.00000, 2412.07, 0, 18.7276, 18.7276
17, 1800.00000, 2408.8, 0, 17.9159, 17.9159
17, 2700.00000, 2408.82, 0, 17.9169, 17.9169
18, 0.00000, 2408.82, 0, 17.9169, 17.9169
18, 900.00000, 2408.82, 0, 17.9169, 17.9169
18, 1800.00000, 2408.82, 0, 17.9169, 17.9169
18, 2700.00000, 2397.42, 0, 17.4225, 17.4225
19, 0.00000, 2397.42, 0, 17.4226, 17.4226
19, 900.00000, 2397.42, 0, 17.4226, 17.4226
19, 1800.00000, 2406.64, 0, 17.0597, 17.0597
19, 2700.00000, 2406.64, 0, 17.0598, 17.0598
20, 0.00000, 2406.64, 0, 17.0598, 17.0598
20, 900.00000, 2406.64, 0, 17.0598, 17.0598
20, 1800.00000, 2406.64, 0, 17.0598, 17.0598
20, 2700.00000, 2415.73, 0, 16.4302, 16.4302
21, 0.00000, 2415.73, 0, 16.4303, 16.4303
21, 900.00000, 2415.73, 0, 16.4303, 16.4303
21, 1800.00000, 2405.51, 0, 16.3608, 16.3608
21, 2700.00000, 2405.51, 0, 16.3608, 16.3608
22, 0.00000, 2405.51, 0, 16.3608, 16.3608
22, 900.00000, 2405.51, 0, 16.3608, 16.3608
22, 1800.00000, 2405.51, 0, 16.3608, 16.3608
22, 2700.00000, 2411.09, 0, 15.5002, 15.5002
23, 0.00000, 2411.09, 0, 15.5002, 15.5002
23, 900.00000, 2411.09, 0, 15.5002, 15.5002
23, 1800.00000, 2429.69, 0, 14.2613, 14.2613
23, 2700.00000, 2429.7, 0, 14.2615, 14.2615
24, 0.00000, 2429.7, 0, 14.2615, 14.2615
