hour, t(sec), |V|1 (volts), |V|2 (volts), |I|1 (amps), |I|2 (amps)
0, 900.00000, 2374.87, 2437, 8.14893, 8.14893
0, 1800.00000, 2374.88, 2436.99, 8.14886, 8.14886
0, 2700.00000, 2379.71, 2437.71, 7.28677, 7.28677
1, 0.00000, 2379.71, 2437.71, 7.28674, 7.28674
1, 900.00000, 2379.71, 2437.71, 7.28674, 7.28674
1, 1800.00000, 2386.79, 2440.25, 6.71837, 6.71837
1, 2700.00000, 2386.79, 2440.25, 6.71839, 6.71839
2, 0.00000, 2386.79, 2440.25, 6.71839, 6.71839
2, 900.00000, 2386.79, 2440.25, 6.71839, 6.71839
2, 1800.00000, 2386.79, 2440.25, 6.71839, 6.71839
2, 2700.00000, 2386.97, 2439.93, 6.5367, 6.5367
3, 0.00000, 2386.96, 2439.93, 6.53675, 6.53675
3, 900.00000, 2386.96, 2439.93, 6.53675, 6.53675
3, 1800.00000, 2389.59, 2440.72, 6.25886, 6.25886
3, 2700.00000, 2389.59, 2440.72, 6.25884, 6.25884
4, 0.00000, 2389.59, 2440.72, 6.25884, 6.25884
4, 900.00000, 2389.59, 2440.72, 6.25884, 6.25884
4, 1800.00000, 2389.59, 2440.72, 6.25884, 6.25884
4, 2700.00000, 2389.14, 2440.4, 6.22732, 6.22732
5, 0.00000, 2389.14, 2440.4, 6.2274, 6.2274
5, 900.00000, 2389.14, 2440.4, 6.2274, 6.2274
5, 1800.00000, 2387.81, 2440.23, 6.46833, 6.46833
5, 2700.00000, 2387.81, 2440.23, 6.46842, 6.46842
6, 0.00000, 2387.81, 2440.23, 6.46842, 6.46842
6, 900.00000, 2387.81, 2440.23, 6.46842, 6.46842
6, 1800.00000, 2387.81, 2440.23, 6.46842, 6.46842
6, 2700.00000, 2382.95, 2438.95, 7.06412, 7.06412
7, 0.00000, 2382.95, 2438.95, 7.06416, 7.06416
7, 900.00000, 2382.95, 2438.95, 7.06416, 7.06416
7, 1800.00000, 2375.66, 2437.23, 8.05744, 8.05744
7, 2700.00000, 2375.66, 2437.23, 8.0574, 8.0574
8, 0.00000, 2375.66, 2437.23, 8.0574, 8.0574
8, 900.00000, 2375.66, 2437.23, 8.0574, 8.0574
8, 1800.00000, 2375.66, 2437.23, 8.0574, 8.0574
8, 2700.00000, 2368.41, 2435.3, 8.98596, 8.98596
9, 0.00000, 2368.41, 2435.31, 8.98603, 8.98603
9, 900.00000, 2368.41, 2435.31, 8.98603, 8.98603
9, 1800.00000, 2364.88, 2434.51, 9.51475, 9.51475
9, 2700.00000, 2364.87, 2434.52, 9.51475, 9.51475
10, 0.00000, 2364.87, 2434.52, 9.51475, 9.51475
10, 900.00000, 2364.87, 2434.52, 9.51475, 9.51475
10, 1800.00000, 2364.87, 2434.52, 9.51475, 9.51475
10, 2700.00000, 2374.93, 2448.27, 10.1152, 10.1152
11, 0.00000, 2374.94, 2448.27, 10.1152, 10.1152
11, 900.00000, 2374.94, 2448.27, 10.1152, 10.1152
11, 1800.00000, 2370.79, 2447.14, 10.6561, 10.6561
11, 2700.00000, 2370.79, 2447.15, 10.6562, 10.6562
12, 0.00000, 2370.79, 2447.15, 10.6562, 10.6562
12, 900.00000, 2370.79, 2447.15, 10.6562, 10.6562
12, 1800.00000, 2370.79, 2447.15, 10.6562, 10.6562
12, 2700.00000, 2371.35, 2447.36, 10.6113, 10.6113
13, 0.00000, 2371.35, 2447.36, 10.6112, 10.6112
13, 900.00000, 2371.35, 2447.36, 10.6112, 10.6112
13, 1800.00000, 2371.2, 2447.18, 10.5578, 10.5578
13, 2700.00000, 2371.2, 2447.18, 10.5579, 10.5579
14, 0.00000, 2371.2, 2447.18, 10.5579, 10.5579
14, 900.00000, 2371.2, 2447.18, 10.5579, 10.5579
14, 1800.00000, 2371.2, 2447.18, 10.5579, 10.5579
14, 2700.00000, 2371.11, 2447.33, 10.6637, 10.6637
15, 0.00000, 2371.12, 2447.34, 10.6636, 10.6636
15, 900.00000, 2371.12, 2447.34, 10.6636, 10.6636
15, 1800.00000, 2369.86, 2446.87, 10.7668, 10.7668
15, 2700.00000, 2369.85, 2446.87, 10.767, 10.767
16, 0.00000, 2369.85, 2446.87, 10.767, 10.767
16, 900.00000, 2369.85, 2446.87, 10.767, 10.767
16, 1800.00000, 2369.85, 2446.87, 10.767, 10.767
16, 2700.00000, 2369.65, 2446.78, 10.7785, 10.7785
17, 0.00000, 2369.65, 2446.78, 10.7785, 10.7785
17, 900.00000, 2369.65, 2446.78, 10.7785, 10.7785
17, 1800.00000, 2373.61, 2447.94, 10.3132, 10.3132
17, 2700.00000, 2373.61, 2447.94, 10.3132, 10.3132
18, 0.00000, 2373.61, 2447.94, 10.3132, 10.3132
18, 900.00000, 2373.61, 2447.94, 10.3132, 10.3132
18, 1800.00000, 2373.61, 2447.94, 10.3132, 10.3132
18, 2700.00000, 2375.24, 2448.32, 10.0715, 10.0715
19, 0.00000, 2375.25, 2448.31, 10.0713, 10.0713
19, 900.00000, 2375.25, 2448.31, 10.0713, 10.0713
19, 1800.00000, 2377.09, 2448.79, 9.81847, 9.81847
19, 2700.00000, 2377.1, 2448.78, 9.81827, 9.81827
20, 0.00000, 2377.1, 2448.78, 9.81827, 9.81827
20, 900.00000, 2377.1, 2448.78, 9.81827, 9.81827
20, 1800.00000, 2377.1, 2448.78, 9.81827, 9.81827
20, 2700.00000, 2380.05, 2449.53, 9.41184, 9.41184
21, 0.00000, 2380.05, 2449.53, 9.41182, 9.41182
21, 900.00000, 2380.05, 2449.53, 9.41182, 9.41182
21, 1800.00000, 2380.05, 2449.53, 9.41182, 9.41182
21, 2700.00000, 2380.05, 2449.53, 9.41182, 9.41182
22, 0.00000, 2380.05, 2449.53, 9.41182, 9.41182
22, 900.00000, 2380.05, 2449.53, 9.41182, 9.41182
22, 1800.00000, 2380.05, 2449.53, 9.41182, 9.41182
22, 2700.00000, 2384.12, 2450.57, 8.88495, 8.88495
23, 0.00000, 2384.12, 2450.57, 8.885, 8.885
23, 900.00000, 2384.12, 2450.57, 8.885, 8.885
23, 1800.00000, 2390.16, 2452.14, 8.09732, 8.09732
23, 2700.00000, 2390.16, 2452.14, 8.09732, 8.09732
24, 0.00000, 2390.16, 2452.14, 8.09732, 8.09732
24, 900.00000, 2390.16, 2452.14, 8.09732, 8.09732
24, 1800.00000, 2390.16, 2452.14, 8.09732, 8.09732
24, 2700.00000, 2395.06, 2452.86, 7.24061, 7.24061
25, 0.00000, 2395.06, 2452.86, 7.24061, 7.24061
25, 900.00000, 2395.06, 2452.86, 7.24061, 7.24061
25, 1800.00000, 2401.91, 2455.35, 6.67599, 6.67599
25, 2700.00000, 2401.9, 2455.36, 6.67604, 6.67604
26, 0.00000, 2401.9, 2455.36, 6.67604, 6.67604
26, 900.00000, 2401.9, 2455.36, 6.67604, 6.67604
26, 1800.00000, 2401.9, 2455.36, 6.67604, 6.67604
26, 2700.00000, 2402.1, 2455.04, 6.49547, 6.49547
27, 0.00000, 2402.09, 2455.04, 6.49552, 6.49552
27, 900.00000, 2402.09, 2455.04, 6.49552, 6.49552
27, 1800.00000, 2404.71, 2455.84, 6.21942, 6.21942
27, 2700.00000, 2404.71, 2455.84, 6.2194, 6.2194
28, 0.00000, 2404.71, 2455.84, 6.2194, 6.2194
28, 900.00000, 2404.71, 2455.84, 6.2194, 6.2194
28, 1800.00000, 2404.71, 2455.84, 6.2194, 6.2194
28, 2700.00000, 2404.27, 2455.53, 6.18806, 6.18806
29, 0.00000, 2404.27, 2455.53, 6.18814, 6.18814
29, 900.00000, 2404.27, 2455.53, 6.18814, 6.18814
29, 1800.00000, 2402.93, 2455.35, 6.42754, 6.42754
29, 2700.00000, 2402.94, 2455.35, 6.42764, 6.42764
30, 0.00000, 2402.94, 2455.35, 6.42764, 6.42764
30, 900.00000, 2402.94, 2455.35, 6.42764, 6.42764
30, 1800.00000, 2402.94, 2455.35, 6.42764, 6.42764
30, 2700.00000, 2398.08, 2454.05, 7.01952, 7.01952
31, 0.00000, 2398.08, 2454.05, 7.01955, 7.01955
31, 900.00000, 2398.08, 2454.05, 7.01955, 7.01955
31, 1800.00000, 2390.79, 2452.31, 8.00646, 8.00646
31, 2700.00000, 2390.79, 2452.31, 8.00642, 8.00642
32, 0.00000, 2390.79, 2452.31, 8.00642, 8.00642
32, 900.00000, 2390.79, 2452.31, 8.00642, 8.00642
32, 1800.00000, 2390.79, 2452.31, 8.00642, 8.00642
32, 2700.00000, 2383.55, 2450.36, 8.92898, 8.92898
33, 0.00000, 2383.55, 2450.36, 8.92905, 8.92905
33, 900.00000, 2383.55, 2450.36, 8.92905, 8.92905
33, 1800.00000, 2380.01, 2449.56, 9.45437, 9.45437
33, 2700.00000, 2380.01, 2449.56, 9.45437, 9.45437
34, 0.00000, 2380.01, 2449.56, 9.45437, 9.45437
34, 900.00000, 2380.01, 2449.56, 9.45437, 9.45437
34, 1800.00000, 2380.01, 2449.56, 9.45437, 9.45437
34, 2700.00000, 2374.97, 2448.25, 10.1152, 10.1152
35, 0.00000, 2374.98, 2448.25, 10.1151, 10.1151
35, 900.00000, 2374.98, 2448.25, 10.1151, 10.1151
35, 1800.00000, 2370.83, 2447.12, 10.656, 10.656
35, 2700.00000, 2370.83, 2447.12, 10.6561, 10.6561
36, 0.00000, 2370.83, 2447.12, 10.6561, 10.6561
36, 900.00000, 2370.83, 2447.12, 10.6561, 10.6561
36, 1800.00000, 2370.83, 2447.12, 10.6561, 10.6561
36, 2700.00000, 2371.39, 2447.33, 10.6112, 10.6112
37, 0.00000, 2371.4, 2447.33, 10.6111, 10.6111
37, 900.00000, 2371.4, 2447.33, 10.6111, 10.6111
37, 1800.00000, 2371.25, 2447.15, 10.5577, 10.5577
37, 2700.00000, 2371.24, 2447.15, 10.5578, 10.5578
38, 0.00000, 2371.24, 2447.15, 10.5578, 10.5578
38, 900.00000, 2371.24, 2447.15, 10.5578, 10.5578
38, 1800.00000, 2371.24, 2447.15, 10.5578, 10.5578
38, 2700.00000, 2371.16, 2447.31, 10.6636, 10.6636
39, 0.00000, 2371.16, 2447.31, 10.6635, 10.6635
39, 900.00000, 2371.16, 2447.31, 10.6635, 10.6635
39, 1800.00000, 2369.91, 2446.84, 10.7667, 10.7667
39, 2700.00000, 2369.9, 2446.85, 10.7669, 10.7669
40, 0.00000, 2369.9, 2446.85, 10.7669, 10.7669
40, 900.00000, 2369.9, 2446.85, 10.7669, 10.7669
40, 1800.00000, 2369.9, 2446.85, 10.7669, 10.7669
40, 2700.00000, 2369.7, 2446.75, 10.7784, 10.7784
41, 0.00000, 2369.7, 2446.75, 10.7785, 10.7785
41, 900.00000, 2369.7, 2446.75, 10.7785, 10.7785
41, 1800.00000, 2373.65, 2447.92, 10.3131, 10.3131
41, 2700.00000, 2373.65, 2447.92, 10.3131, 10.3131
42, 0.00000, 2373.65, 2447.92, 10.3131, 10.3131
42, 900.00000, 2373.65, 2447.92, 10.3131, 10.3131
42, 1800.00000, 2373.65, 2447.92, 10.3131, 10.3131
42, 2700.00000, 2375.29, 2448.29, 10.0714, 10.0714
43, 0.00000, 2375.3, 2448.29, 10.0712, 10.0712
43, 900.00000, 2375.3, 2448.29, 10.0712, 10.0712
43, 1800.00000, 2377.13, 2448.76, 9.8184, 9.8184
43, 2700.00000, 2377.14, 2448.76, 9.8182, 9.8182
44, 0.00000, 2377.14, 2448.76, 9.8182, 9.8182
44, 900.00000, 2377.14, 2448.76, 9.8182, 9.8182
44, 1800.00000, 2377.14, 2448.76, 9.8182, 9.8182
44, 2700.00000, 2380.09, 2449.5, 9.41178, 9.41178
45, 0.00000, 2380.09, 2449.5, 9.41176, 9.41176
45, 900.00000, 2380.1, 2449.5, 9.41176, 9.41176
45, 1800.00000, 2380.1, 2449.5, 9.41176, 9.41176
45, 2700.00000, 2380.1, 2449.5, 9.41176, 9.41176
46, 0.00000, 2380.1, 2449.5, 9.41176, 9.41176
46, 900.00000, 2380.1, 2449.5, 9.41176, 9.41176
46, 1800.00000, 2380.1, 2449.5, 9.41176, 9.41176
46, 2700.00000, 2384.16, 2450.55, 8.88489, 8.88489
47, 0.00000, 2384.16, 2450.55, 8.88494, 8.88494
47, 900.00000, 2384.16, 2450.55, 8.88494, 8.88494
47, 1800.00000, 2390.2, 2452.12, 8.09727, 8.09727
47, 2700.00000, 2390.2, 2452.12, 8.09727, 8.09727
48, 0.00000, 2390.2, 2452.12, 8.09727, 8.09727
