hour, t(sec), P1 (kW), Q1 (kvar), P2 (kW), Q2 (kvar), P3 (kW), Q3 (kvar)
0, 900.00000, 1007.41, 347.773, 639.013, 179.574, 805.749, 220.134
0, 1800.00000, 1007.38, 347.748, 639.024, 179.582, 805.748, 220.136
0, 2700.00000, 987.42, 285.736, 655.359, 135.617, 805.355, 171.441
1, 0.00000, 987.369, 285.714, 655.374, 135.629, 805.368, 171.443
1, 900.00000, 987.369, 285.714, 655.374, 135.629, 805.367, 171.443
1, 1800.00000, 810.788, 230.104, 506.074, 97.5457, 643.354, 128.961
1, 2700.00000, 810.789, 230.105, 506.073, 97.5444, 643.366, 128.969
2, 0.00000, 810.789, 230.105, 506.073, 97.5444, 643.366, 128.97
2, 900.00000, 810.789, 230.105, 506.073, 97.5444, 643.366, 128.97
2, 1800.00000, 810.789, 230.105, 506.073, 97.5444, 643.366, 128.97
2, 2700.00000, 858.438, 221.35, 560.592, 90.8702, 694.849, 121.683
3, 0.00000, 858.441, 221.354, 560.593, 90.8712, 694.849, 121.684
3, 900.00000, 858.441, 221.354, 560.593, 90.8712, 694.849, 121.684
3, 1800.00000, 845.128, 200.861, 559.228, 76.3373, 688.005, 105.584
3, 2700.00000, 845.115, 200.852, 559.227, 76.3367, 688.005, 105.584
4, 0.00000, 845.115, 200.852, 559.227, 76.3367, 688.005, 105.584
4, 900.00000, 845.115, 200.852, 559.227, 76.3367, 688.005, 105.584
4, 1800.00000, 845.115, 200.852, 559.227, 76.3367, 688.005, 105.584
4, 2700.00000, 840.798, 198.177, 556.373, 74.4524, 684.48, 103.497
5, 0.00000, 840.786, 198.17, 556.373, 74.4519, 684.473, 103.493
5, 900.00000, 840.786, 198.17, 556.373, 74.4519, 684.473, 103.493
5, 1800.00000, 829.009, 214.019, 534.578, 85.8647, 667.233, 116.099
5, 2700.00000, 829.022, 214.031, 534.58, 85.8673, 667.237, 116.101
6, 0.00000, 829.022, 214.031, 534.58, 85.8672, 667.237, 116.101
6, 900.00000, 829.022, 214.031, 534.58, 85.8672, 667.237, 116.101
6, 1800.00000, 829.022, 214.031, 534.58, 85.8672, 667.237, 116.101
6, 2700.00000, 823.688, 255.151, 504.42, 115.446, 648.335, 148.729
7, 0.00000, 823.729, 255.197, 504.407, 115.433, 648.364, 148.753
7, 900.00000, 823.729, 255.197, 504.406, 115.433, 648.364, 148.753
7, 1800.00000, 926.227, 333.633, 563.453, 170.465, 727.411, 209.824
7, 2700.00000, 926.226, 333.631, 563.454, 170.467, 727.396, 209.811
8, 0.00000, 926.226, 333.631, 563.454, 170.467, 727.396, 209.811
8, 900.00000, 926.226, 333.631, 563.454, 170.467, 727.396, 209.811
8, 1800.00000, 926.226, 333.631, 563.454, 170.467, 727.396, 209.811
8, 2700.00000, 944.406, 399.068, 541.646, 216.434, 723.753, 260.811
9, 0.00000, 944.4, 399.063, 541.646, 216.434, 723.768, 260.826
9, 900.00000, 944.4, 399.062, 541.646, 216.434, 723.768, 260.826
9, 1800.00000, 818.917, 426.667, 397.726, 238.915, 587.541, 284.962
9, 2700.00000, 818.924, 426.675, 397.726, 238.913, 587.541, 284.962
10, 0.00000, 818.924, 426.675, 397.726, 238.913, 587.541, 284.962
10, 900.00000, 818.924, 426.675, 397.726, 238.913, 587.541, 284.962
10, 1800.00000, 818.924, 426.675, 397.726, 238.913, 587.541, 284.962
10, 2700.00000, 731.606, 468.862, 284.853, 274.756, 485.953, 320.606
11, 0.00000, 731.612, 468.857, 284.849, 274.77, 485.948, 320.603
11, 900.00000, 731.612, 468.857, 284.849, 274.77, 485.948, 320.603
11, 1800.00000, 918.012, 519.533, 445.392, 307.156, 659.523, 357.428
11, 2700.00000, 918.01, 519.533, 445.393, 307.157, 659.501, 357.41
12, 0.00000, 918.01, 519.533, 445.393, 307.157, 659.501, 357.41
12, 900.00000, 918.01, 519.533, 445.393, 307.157, 659.501, 357.41
12, 1800.00000, 918.01, 519.533, 445.393, 307.157, 659.501, 357.41
12, 2700.00000, 1043.34, 524.347, 567.382, 309.384, 783.092, 360.688
13, 0.00000, 1043.31, 524.311, 567.391, 309.398, 783.089, 360.687
13, 900.00000, 1043.31, 524.311, 567.392, 309.398, 783.089, 360.687
13, 1800.00000, 1015.87, 518.018, 542.824, 305.429, 757.041, 356.152
13, 2700.00000, 1015.82, 517.958, 542.813, 305.418, 757.014, 356.127
14, 0.00000, 1015.82, 517.958, 542.814, 305.418, 757.014, 356.127
14, 900.00000, 1015.82, 517.958, 542.814, 305.418, 757.014, 356.127
14, 1800.00000, 1015.82, 517.958, 542.814, 305.418, 757.014, 356.127
14, 2700.00000, 1016.98, 525.698, 539.642, 311.007, 755.809, 362.272
15, 0.00000, 1017.01, 525.722, 539.643, 311.006, 755.823, 362.287
15, 900.00000, 1017.01, 525.722, 539.643, 311.006, 755.823, 362.287
15, 1800.00000, 975.836, 529.511, 495.42, 314.696, 712.673, 366.065
15, 2700.00000, 975.794, 529.469, 495.407, 314.684, 712.66, 366.057
16, 0.00000, 975.794, 529.469, 495.407, 314.684, 712.66, 366.057
16, 900.00000, 975.794, 529.469, 495.407, 314.684, 712.66, 366.057
16, 1800.00000, 975.794, 529.469, 495.407, 314.684, 712.66, 366.057
16, 2700.00000, 1001.55, 532.352, 520.097, 316.181, 738.022, 367.879
17, 0.00000, 1001.57, 532.385, 520.101, 316.187, 738.03, 367.886
17, 900.00000, 1001.57, 532.385, 520.101, 316.187, 738.03, 367.886
17, 1800.00000, 1093.65, 508.062, 629.243, 293.903, 839.408, 346.941
17, 2700.00000, 1093.64, 508.065, 629.231, 293.883, 839.418, 346.951
18, 0.00000, 1093.64, 508.065, 629.231, 293.883, 839.418, 346.951
18, 900.00000, 1093.64, 508.065, 629.231, 293.883, 839.418, 346.951
18, 1800.00000, 1093.64, 508.065, 629.231, 293.883, 839.418, 346.951
18, 2700.00000, 1239.94, 506.138, 779.344, 289.183, 988.284, 342.681
19, 0.00000, 1239.93, 506.131, 779.345, 289.182, 988.308, 342.701
19, 900.00000, 1239.93, 506.131, 779.345, 289.182, 988.308, 342.701
19, 1800.00000, 1197.72, 483.561, 748.634, 273.782, 952.172, 325.497
19, 2700.00000, 1197.71, 483.546, 748.637, 273.784, 952.165, 325.492
20, 0.00000, 1197.71, 483.546, 748.637, 273.784, 952.164, 325.492
20, 900.00000, 1197.71, 483.546, 748.637, 273.784, 952.164, 325.492
20, 1800.00000, 1197.71, 483.546, 748.637, 273.784, 952.164, 325.492
20, 2700.00000, 1118.51, 446.219, 688.451, 248.502, 883.096, 297.219
21, 0.00000, 1118.53, 446.227, 688.449, 248.5, 883.096, 297.219
21, 900.00000, 1118.53, 446.227, 688.449, 248.5, 883.096, 297.219
21, 1800.00000, 1123.67, 446.763, 693.472, 248.81, 888.196, 297.582
21, 2700.00000, 1123.69, 446.774, 693.475, 248.813, 888.202, 297.586
22, 0.00000, 1123.69, 446.774, 693.475, 248.813, 888.202, 297.586
22, 900.00000, 1123.69, 446.774, 693.475, 248.813, 888.202, 297.587
22, 1800.00000, 1123.69, 446.774, 693.475, 248.813, 888.202, 297.587
22, 2700.00000, 1121.87, 409.638, 713.411, 222.393, 898.175, 268.391
23, 0.00000, 1207.36, 419.409, 796.702, 228.336, 982.663, 275.233
23, 900.00000, 1207.39, 419.427, 796.699, 228.334, 982.673, 275.238
23, 1800.00000, 1101.39, 354.582, 728.434, 182.094, 897.635, 223.65
23, 2700.00000, 1101.43, 354.607, 728.414, 182.082, 897.641, 223.653
24, 0.00000, 1101.43, 354.607, 728.413, 182.082, 897.641, 223.653
24, 900.00000, 1101.43, 354.607, 728.413, 182.082, 897.641, 223.653
24, 1800.00000, 1101.43, 354.607, 728.413, 182.082, 897.641, 223.653
24, 2700.00000, 993.741, 285.529, 660.34, 135.174, 811.071, 170.91
25, 0.00000, 993.766, 285.539, 660.344, 135.174, 811.08, 170.913
25, 900.00000, 993.766, 285.539, 660.344, 135.174, 811.08, 170.913
25, 1800.00000, 812.967, 231.216, 508.11, 98.7574, 645.521, 130.043
25, 2700.00000, 907.882, 239.59, 601.223, 103.961, 739.621, 135.972
26, 0.00000, 907.895, 239.598, 601.221, 103.96, 739.626, 135.975
26, 900.00000, 907.895, 239.598, 601.221, 103.96, 739.626, 135.975
26, 1800.00000, 907.895, 239.598, 601.221, 103.96, 739.626, 135.975
26, 2700.00000, 883.696, 224.515, 585.206, 93.3477, 719.844, 124.222
27, 0.00000, 883.62, 224.472, 585.203, 93.3451, 719.8, 124.197
27, 900.00000, 883.62, 224.471, 585.203, 93.3452, 719.8, 124.197
27, 1800.00000, 847.135, 201.826, 561.119, 77.4268, 690.009, 106.546
27, 2700.00000, 847.129, 201.823, 561.121, 77.4279, 690.004, 106.543
28, 0.00000, 847.129, 201.823, 561.121, 77.4279, 690.004, 106.543
28, 900.00000, 847.129, 201.823, 561.121, 77.4279, 690.004, 106.543
28, 1800.00000, 847.129, 201.823, 561.121, 77.4279, 690.004, 106.543
28, 2700.00000, 842.803, 199.144, 558.258, 75.5386, 686.47, 104.452
29, 0.00000, 842.79, 199.137, 558.258, 75.5383, 686.462, 104.448
29, 900.00000, 842.79, 199.137, 558.258, 75.5383, 686.462, 104.448
29, 1800.00000, 874.708, 218.93, 579.327, 89.4569, 712.522, 119.88
29, 2700.00000, 874.714, 218.934, 579.325, 89.4559, 712.526, 119.883
30, 0.00000, 874.714, 218.934, 579.325, 89.4559, 712.526, 119.883
30, 900.00000, 874.714, 218.934, 579.325, 89.4559, 712.526, 119.883
30, 1800.00000, 874.714, 218.934, 579.325, 89.4559, 712.526, 119.883
30, 2700.00000, 895.166, 262.357, 574.346, 120.319, 719.197, 154.031
31, 0.00000, 895.173, 262.361, 574.343, 120.318, 719.204, 154.035
31, 900.00000, 895.173, 262.361, 574.343, 120.318, 719.204, 154.035
31, 1800.00000, 962.157, 338.024, 598.461, 173.7, 762.998, 213.184
31, 2700.00000, 962.155, 338.023, 598.463, 173.701, 762.98, 213.172
32, 0.00000, 962.155, 338.023, 598.463, 173.701, 762.98, 213.172
32, 900.00000, 962.155, 338.023, 598.463, 173.701, 762.98, 213.172
32, 1800.00000, 962.155, 338.023, 598.463, 173.701, 762.98, 213.172
32, 2700.00000, 1028.26, 406.527, 623.358, 223.576, 806.289, 268.508
33, 0.00000, 1028.23, 406.501, 623.371, 223.587, 806.286, 268.506
33, 900.00000, 1028.23, 406.5, 623.371, 223.587, 806.286, 268.506
33, 1800.00000, 978.701, 439.059, 553.332, 247.715, 745.236, 294.869
33, 2700.00000, 978.692, 439.051, 553.333, 247.717, 745.235, 294.87
34, 0.00000, 978.691, 439.051, 553.333, 247.717, 745.235, 294.87
34, 900.00000, 978.691, 439.051, 553.333, 247.717, 745.235, 294.87
34, 1800.00000, 978.691, 439.051, 553.333, 247.717, 745.235, 294.87
34, 2700.00000, 889.927, 478.659, 440.052, 278.274, 642.395, 327.928
35, 0.00000, 889.922, 478.669, 440.032, 278.261, 642.415, 327.975
35, 900.00000, 889.921, 478.669, 440.031, 278.261, 642.415, 327.975
35, 1800.00000, 917.457, 519.194, 445.394, 307.166, 657.939, 359.908
35, 2700.00000, 917.465, 519.203, 445.393, 307.164, 657.918, 359.89
36, 0.00000, 917.465, 519.203, 445.393, 307.164, 657.918, 359.89
36, 900.00000, 917.465, 519.203, 445.393, 307.164, 657.918, 359.89
36, 1800.00000, 917.465, 519.203, 445.393, 307.164, 657.918, 359.89
36, 2700.00000, 1042.71, 523.981, 567.384, 309.389, 783.107, 360.713
37, 0.00000, 1042.69, 523.961, 567.391, 309.401, 783.088, 360.691
37, 900.00000, 1042.69, 523.96, 567.391, 309.401, 783.088, 360.691
37, 1800.00000, 1015.26, 517.67, 542.823, 305.432, 757.039, 356.156
37, 2700.00000, 1015.2, 517.61, 542.813, 305.421, 757.013, 356.13
38, 0.00000, 1015.2, 517.61, 542.813, 305.422, 757.012, 356.13
38, 900.00000, 1015.2, 517.61, 542.813, 305.422, 757.012, 356.13
38, 1800.00000, 1015.2, 517.61, 542.813, 305.422, 757.012, 356.13
38, 2700.00000, 1016.36, 525.347, 539.642, 311.01, 755.807, 362.275
39, 0.00000, 1016.39, 525.371, 539.642, 311.01, 755.821, 362.29
39, 900.00000, 1016.39, 525.371, 539.642, 311.009, 755.821, 362.29
39, 1800.00000, 975.211, 529.157, 495.419, 314.7, 712.672, 366.069
39, 2700.00000, 975.169, 529.116, 495.406, 314.687, 712.658, 366.06
40, 0.00000, 975.169, 529.115, 495.406, 314.687, 712.658, 366.06
40, 900.00000, 975.169, 529.115, 495.406, 314.687, 712.658, 366.06
40, 1800.00000, 975.169, 529.115, 495.406, 314.687, 712.658, 366.06
40, 2700.00000, 1000.93, 531.997, 520.096, 316.184, 738.02, 367.882
41, 0.00000, 1000.95, 532.031, 520.1, 316.19, 738.029, 367.889
41, 900.00000, 1000.95, 532.031, 520.1, 316.19, 738.029, 367.889
41, 1800.00000, 1093.05, 507.72, 629.243, 293.906, 839.407, 346.946
41, 2700.00000, 1093.04, 507.723, 629.232, 293.885, 839.416, 346.955
42, 0.00000, 1093.04, 507.723, 629.232, 293.885, 839.416, 346.955
42, 900.00000, 1093.04, 507.723, 629.232, 293.885, 839.416, 346.955
42, 1800.00000, 1093.04, 507.723, 629.232, 293.885, 839.416, 346.955
42, 2700.00000, 1239.35, 505.797, 779.346, 289.185, 988.282, 342.687
43, 0.00000, 1239.34, 505.79, 779.347, 289.185, 988.307, 342.707
43, 900.00000, 1239.34, 505.789, 779.347, 289.185, 988.307, 342.707
43, 1800.00000, 1197.14, 483.229, 748.636, 273.785, 952.17, 325.502
43, 2700.00000, 1197.13, 483.214, 748.638, 273.786, 952.163, 325.497
44, 0.00000, 1197.13, 483.214, 748.638, 273.786, 952.163, 325.497
44, 900.00000, 1197.13, 483.214, 748.638, 273.786, 952.163, 325.497
44, 1800.00000, 1197.13, 483.214, 748.638, 273.786, 952.163, 325.497
44, 2700.00000, 1117.96, 445.902, 688.452, 248.504, 883.095, 297.223
45, 0.00000, 1117.97, 445.91, 688.45, 248.502, 883.095, 297.223
45, 900.00000, 1117.97, 445.91, 688.45, 248.502, 883.095, 297.223
45, 1800.00000, 1276.06, 464.217, 842.284, 259.407, 1039.32, 309.874
45, 2700.00000, 1276.12, 464.257, 842.277, 259.403, 1039.34, 309.885
46, 0.00000, 1276.12, 464.257, 842.277, 259.403, 1039.34, 309.885
46, 900.00000, 1276.12, 464.257, 842.277, 259.403, 1039.34, 309.885
46, 1800.00000, 1276.12, 464.257, 842.277, 259.403, 1039.34, 309.885
46, 2700.00000, 1206.89, 419.147, 796.69, 228.33, 982.694, 275.256
47, 0.00000, 1206.86, 419.125, 796.701, 228.336, 982.672, 275.244
47, 900.00000, 1206.86, 419.125, 796.701, 228.336, 982.672, 275.243
47, 1800.00000, 1101.39, 354.583, 728.434, 182.094, 897.635, 223.65
47, 2700.00000, 1101.43, 354.607, 728.414, 182.082, 897.641, 223.653
48, 0.00000, 1101.43, 354.607, 728.413, 182.082, 897.641, 223.653
