hour, t(sec), kWh,State,kWOut,kWIn,kvarOut,DCkW,kWTotalLosses,kWInvLosses,kWIdlingLosses,kWChDchLosses,kWh Chng,InvEff,InverterON,Vref,Vavg (DRC),VV Oper,VW Oper,DRC Oper,VV_DRC Oper,kWDesired,kW VW Limit,Limit kWOut Function,kVA Exceeded,kVA Exceeded,,kVA
0, 900.00000, 10500, 1, 855.004, 0, -0.000423963, 914.047, 181.715, 59.0427, 19, 103.672, -7000, 0.935405, 1, 9999, 9999, 9999, 9999, 9999, 9999, 9999, 9999, 855, 9999, 1900, 0
0, 1800.00000, 10240.8, 1, 855, 0, -6.10659E-007, 914.043, 181.714, 59.0426, 19, 103.671, -259.18, 0.935405, 1, 9999, 9999, 9999, 9999, 9999, 9999, 9999, 9999, 855, 9999, 1900, 0
0, 2700.00000, 9981.64, 1, 475, 0, -0.00055602, 521.315, 125.35, 46.3155, 19, 60.035, -259.178, 0.911156, 1, 9999, 9999, 9999, 9999, 9999, 9999, 9999, 9999, 475, 9999, 1900, 0
1, 0.00000, 9831.55, 1, 475, 0, -4.36656E-007, 521.315, 125.351, 46.3155, 19, 60.0351, -150.088, 0.911156, 1, 9999, 9999, 9999, 9999, 9999, 9999, 9999, 9999, 475, 9999, 1900, 0
1, 900.00000, 9681.47, 1, 475, 0, 1.117E-009, 521.315, 125.351, 46.3155, 19, 60.0351, -150.088, 0.911156, 1, 9999, 9999, 9999, 9999, 9999, 9999, 9999, 9999, 475, 9999, 1900, 0
1, 1800.00000, 9531.38, 1, 475.001, 0, -0.000232154, 521.317, 125.351, 46.3156, 19, 60.0352, -150.088, 0.911157, 1, 9999, 9999, 9999, 9999, 9999, 9999, 9999, 9999, 475, 9999, 1900, 0
1, 2700.00000, 9381.29, 1, 475, 0, -3.99335E-007, 521.315, 125.351, 46.3155, 19, 60.0351, -150.088, 0.911156, 1, 9999, 9999, 9999, 9999, 9999, 9999, 9999, 9999, 475, 9999, 1900, 0
2, 0.00000, 9231.2, 1, 475, 0, 2.2306E-009, 521.315, 125.351, 46.3155, 19, 60.0351, -150.088, 0.911156, 1, 9999, 9999, 9999, 9999, 9999, 9999, 9999, 9999, 475, 9999, 1900, 0
2, 900.00000, 9081.12, 1, 475, 0, -6.99674E-012, 521.315, 125.351, 46.3155, 19, 60.0351, -150.088, 0.911156, 1, 9999, 9999, 9999, 9999, 9999, 9999, 9999, 9999, 475, 9999, 1900, 0
2, 1800.00000, 8931.03, 1, 475, 0, 4.75666E-013, 521.315, 125.351, 46.3155, 19, 60.0351, -150.088, 0.911156, 1, 9999, 9999, 9999, 9999, 9999, 9999, 9999, 9999, 475, 9999, 1900, 0
2, 2700.00000, 8780.94, 1, 332.476, 0, 0.0137542, 370.261, 100.037, 37.7853, 19, 43.2513, -150.088, 0.89795, 1, 9999, 9999, 9999, 9999, 9999, 9999, 9999, 9999, 332.5, 9999, 1900, 0
3, 0.00000, 8672.81, 1, 332.5, 0, -1.00529E-005, 370.286, 100.04, 37.7859, 19, 43.254, -108.128, 0.897955, 1, 9999, 9999, 9999, 9999, 9999, 9999, 9999, 9999, 332.5, 9999, 1900, 0
3, 900.00000, 8564.68, 1, 332.5, 0, 9.50019E-009, 370.286, 100.04, 37.7859, 19, 43.254, -108.135, 0.897955, 1, 9999, 9999, 9999, 9999, 9999, 9999, 9999, 9999, 332.5, 9999, 1900, 0
3, 1800.00000, 8456.54, 1, 237.497, 0, 0.00386342, 270.803, 84.5061, 33.3057, 19, 32.2003, -108.135, 0.877011, 1, 9999, 9999, 9999, 9999, 9999, 9999, 9999, 9999, 237.5, 9999, 1900, 0
3, 2700.00000, 8376.04, 1, 237.5, 0, -2.56378E-006, 270.806, 84.5066, 33.3059, 19, 32.2007, -80.5008, 0.877012, 1, 9999, 9999, 9999, 9999, 9999, 9999, 9999, 9999, 237.5, 9999, 1900, 0
4, 0.00000, 8295.54, 1, 237.5, 0, 5.79813E-009, 270.806, 84.5066, 33.3059, 19, 32.2007, -80.5017, 0.877012, 1, 9999, 9999, 9999, 9999, 9999, 9999, 9999, 9999, 237.5, 9999, 1900, 0
4, 900.00000, 8215.04, 1, 237.5, 0, -1.74664E-011, 270.806, 84.5066, 33.3059, 19, 32.2007, -80.5016, 0.877012, 1, 9999, 9999, 9999, 9999, 9999, 9999, 9999, 9999, 237.5, 9999, 1900, 0
4, 1800.00000, 8134.54, 1, 237.5, 0, -2.27828E-013, 270.806, 84.5066, 33.3059, 19, 32.2007, -80.5016, 0.877012, 1, 9999, 9999, 9999, 9999, 9999, 9999, 9999, 9999, 237.5, 9999, 1900, 0
4, 2700.00000, 8054.04, 1, 237.502, 0, -0.000533368, 270.808, 84.507, 33.3061, 19, 32.2009, -80.5016, 0.877012, 1, 9999, 9999, 9999, 9999, 9999, 9999, 9999, 9999, 237.5, 9999, 1900, 0
5, 0.00000, 7973.53, 1, 237.5, 0, 4.51569E-007, 270.806, 84.5066, 33.3059, 19, 32.2007, -80.5022, 0.877012, 1, 9999, 9999, 9999, 9999, 9999, 9999, 9999, 9999, 237.5, 9999, 1900, 0
5, 900.00000, 7893.03, 1, 237.5, 0, 3.6036E-010, 270.806, 84.5066, 33.3059, 19, 32.2007, -80.5016, 0.877012, 1, 9999, 9999, 9999, 9999, 9999, 9999, 9999, 9999, 237.5, 9999, 1900, 0
5, 1800.00000, 7812.53, 1, 284.994, 0, -0.000134892, 321.085, 92.8783, 36.091, 19, 37.7873, -80.5016, 0.887597, 1, 9999, 9999, 9999, 9999, 9999, 9999, 9999, 9999, 285, 9999, 1900, 0
5, 2700.00000, 7718.06, 1, 285, 0, -5.37256E-008, 321.091, 92.8792, 36.0912, 19, 37.7879, -94.4682, 0.887598, 1, 9999, 9999, 9999, 9999, 9999, 9999, 9999, 9999, 285, 9999, 1900, 0
6, 0.00000, 7623.59, 1, 285, 0, -4.84082E-009, 321.091, 92.8792, 36.0912, 19, 37.7879, -94.4698, 0.887598, 1, 9999, 9999, 9999, 9999, 9999, 9999, 9999, 9999, 285, 9999, 1900, 0
6, 900.00000, 7529.12, 1, 285, 0, 1.1727E-011, 321.091, 92.8792, 36.0912, 19, 37.7879, -94.4698, 0.887598, 1, 9999, 9999, 9999, 9999, 9999, 9999, 9999, 9999, 285, 9999, 1900, 0
6, 1800.00000, 7434.65, 1, 285, 0, -6.36192E-013, 321.091, 92.8792, 36.0912, 19, 37.7879, -94.4698, 0.887598, 1, 9999, 9999, 9999, 9999, 9999, 9999, 9999, 9999, 285, 9999, 1900, 0
6, 2700.00000, 7340.18, 1, 95, 0, -4.83131E-005, 112.599, 51.2207, 17.5986, 19, 14.6221, -94.4698, 0.843705, 1, 9999, 9999, 9999, 9999, 9999, 9999, 9999, 9999, 95, 9999, 1900, 0
7, 0.00000, 7303.63, 1, 95, 0, 1.3254E-007, 112.599, 51.2207, 17.5986, 19, 14.6221, -36.5552, 0.843705, 1, 9999, 9999, 9999, 9999, 9999, 9999, 9999, 9999, 95, 9999, 1900, 0
7, 900.00000, 7267.07, 1, 95, 0, -7.08409E-010, 112.599, 51.2207, 17.5986, 19, 14.6221, -36.5552, 0.843705, 1, 9999, 9999, 9999, 9999, 9999, 9999, 9999, 9999, 95, 9999, 1900, 0
7, 1800.00000, 7230.52, 0, 0, 23.0589, -0.000262155, -19.0005, 23.0589, 4.05836, 19.0005, 0, -36.5552, 0.824, 1, 9999, 9999, 9999, 9999, 9999, 9999, 9999, 9999, 0, 9999, 1900, 0
7, 2700.00000, 7230.52, 0, 0, 23.0583, -7.80221E-007, -19, 23.0583, 4.05825, 19, 0, 0, 0.824, 1, 9999, 9999, 9999, 9999, 9999, 9999, 9999, 9999, 0, 9999, 1900, 0
8, 0.00000, 7230.52, 0, 0, 23.0583, -3.33001E-009, -19, 23.0583, 4.05825, 19, 0, 0, 0.824, 1, 9999, 9999, 9999, 9999, 9999, 9999, 9999, 9999, 0, 9999, 1900, 0
8, 900.00000, 7230.52, 0, 0, 23.0583, -1.66663E-011, -19, 23.0583, 4.05825, 19, 0, 0, 0.824, 1, 9999, 9999, 9999, 9999, 9999, 9999, 9999, 9999, 0, 9999, 1900, 0
8, 1800.00000, 7230.52, 0, 0, 23.0583, -8.81357E-014, -19, 23.0583, 4.05825, 19, 0, 0, 0.824, 1, 9999, 9999, 9999, 9999, 9999, 9999, 9999, 9999, 0, 9999, 1900, 0
8, 2700.00000, 7230.52, 0, 0, 23.0584, -4.99722E-005, -19.0001, 23.0584, 4.05828, 19.0001, 0, 0, 0.824, 1, 9999, 9999, 9999, 9999, 9999, 9999, 9999, 9999, 0, 9999, 1900, 0
9, 0.00000, 7230.52, 0, 0, 23.0583, -2.19808E-007, -19, 23.0583, 4.05825, 19, 0, 0, 0.824, 1, 9999, 9999, 9999, 9999, 9999, 9999, 9999, 9999, 0, 9999, 1900, 0
9, 900.00000, 7230.52, 0, 0, 23.0583, -1.08309E-009, -19, 23.0583, 4.05825, 19, 0, 0, 0.824, 1, 9999, 9999, 9999, 9999, 9999, 9999, 9999, 9999, 0, 9999, 1900, 0
9, 1800.00000, 7230.52, -1, 0, 617.502, -0.000685741, -564.759, 126.319, 52.7432, 19, 54.5759, 0, 0.914586, 1, 9999, 9999, 9999, 9999, 9999, 9999, 9999, 9999, -617.5, 9999, 1900, 0
9, 2700.00000, 7353.31, -1, 0, 617.5, -1.3213E-007, -564.757, 126.319, 52.7431, 19, 54.5757, 122.796, 0.914586, 1, 9999, 9999, 9999, 9999, 9999, 9999, 9999, 9999, -617.5, 9999, 1900, 0
10, 0.00000, 7476.11, -1, 0, 617.5, -9.21752E-008, -564.757, 126.319, 52.7431, 19, 54.5757, 122.795, 0.914586, 1, 9999, 9999, 9999, 9999, 9999, 9999, 9999, 9999, -617.5, 9999, 1900, 0
10, 900.00000, 7598.9, -1, 0, 617.5, -3.38338E-009, -564.757, 126.319, 52.7431, 19, 54.5757, 122.795, 0.914586, 1, 9999, 9999, 9999, 9999, 9999, 9999, 9999, 9999, -617.5, 9999, 1900, 0
10, 1800.00000, 7721.7, -1, 0, 617.5, -2.02544E-012, -564.757, 126.319, 52.7431, 19, 54.5757, 122.795, 0.914586, 1, 9999, 9999, 9999, 9999, 9999, 9999, 9999, 9999, -617.5, 9999, 1900, 0
10, 2700.00000, 7844.49, -1, 0, 1425, -0.00579327, -1355, 222.6, 70, 19, 133.6, 122.795, 0.950877, 1, 9999, 9999, 9999, 9999, 9999, 9999, 9999, 9999, -1425, 9999, 1900, 0
11, 0.00000, 8145.09, -1, 0, 1425, -7.47602E-006, -1355, 222.6, 70, 19, 133.6, 300.6, 0.950877, 1, 9999, 9999, 9999, 9999, 9999, 9999, 9999, 9999, -1425, 9999, 1900, 0
11, 900.00000, 8445.69, -1, 0, 1425, -1.34917E-007, -1355, 222.6, 70, 19, 133.6, 300.6, 0.950877, 1, 9999, 9999, 9999, 9999, 9999, 9999, 9999, 9999, -1425, 9999, 1900, 0
11, 1800.00000, 8746.29, -1, 0, 1615, -0.00217009, -1546.52, 240.233, 68.4805, 19, 152.752, 300.6, 0.957597, 1, 9999, 9999, 9999, 9999, 9999, 9999, 9999, 9999, -1615, 9999, 1900, 0
11, 2700.00000, 9089.99, -1, 0, 1615, -3.3698E-005, -1546.52, 240.233, 68.4806, 19, 152.752, 343.693, 0.957597, 1, 9999, 9999, 9999, 9999, 9999, 9999, 9999, 9999, -1615, 9999, 1900, 0
12, 0.00000, 9433.68, -1, 0, 1615, -2.12586E-007, -1546.52, 240.233, 68.4806, 19, 152.752, 343.692, 0.957597, 1, 9999, 9999, 9999, 9999, 9999, 9999, 9999, 9999, -1615, 9999, 1900, 0
12, 900.00000, 9777.37, -1, 0, 1615, 3.46022E-009, -1546.52, 240.233, 68.4806, 19, 152.752, 343.692, 0.957597, 1, 9999, 9999, 9999, 9999, 9999, 9999, 9999, 9999, -1615, 9999, 1900, 0
12, 1800.00000, 10121.1, -1, 0, 1615, 1.41335E-010, -1546.52, 240.233, 68.4806, 19, 152.752, 343.692, 0.957597, 1, 9999, 9999, 9999, 9999, 9999, 9999, 9999, 9999, -1615, 9999, 1900, 0
12, 2700.00000, 10464.8, -1, 0, 1757.51, 0.053652, -1691.95, 251.85, 65.5548, 19, 167.295, 343.692, 0.9627, 1, 9999, 9999, 9999, 9999, 9999, 9999, 9999, 9999, -1757.5, 9999, 1900, 0
13, 0.00000, 10841.2, -1, 0, 1757.5, -6.63694E-005, -1691.95, 251.85, 65.5551, 19, 167.295, 376.415, 0.9627, 1, 9999, 9999, 9999, 9999, 9999, 9999, 9999, 9999, -1757.5, 9999, 1900, 0
13, 900.00000, 11217.6, -1, 0, 1757.5, -1.21895E-006, -1691.94, 251.85, 65.5551, 19, 167.294, 376.413, 0.9627, 1, 9999, 9999, 9999, 9999, 9999, 9999, 9999, 9999, -1757.5, 9999, 1900, 0
13, 1800.00000, 11594, -1, 0, 1804.98, 0.02307, -1740.75, 255.41, 64.2355, 19, 172.175, 376.413, 0.964412, 1, 9999, 9999, 9999, 9999, 9999, 9999, 9999, 9999, -1805, 9999, 1900, 0
13, 2700.00000, 11981.4, -1, 0, 1805, 4.87779E-005, -1740.77, 255.411, 64.2349, 19, 172.176, 387.393, 0.964413, 1, 9999, 9999, 9999, 9999, 9999, 9999, 9999, 9999, -1805, 9999, 1900, 0
14, 0.00000, 12368.8, -1, 0, 1805, 3.53879E-007, -1740.77, 255.411, 64.2349, 19, 172.177, 387.397, 0.964413, 1, 9999, 9999, 9999, 9999, 9999, 9999, 9999, 9999, -1805, 9999, 1900, 0
14, 900.00000, 12756.2, -1, 0, 1805, 6.26044E-009, -1740.77, 255.411, 64.2349, 19, 172.177, 387.397, 0.964413, 1, 9999, 9999, 9999, 9999, 9999, 9999, 9999, 9999, -1805, 9999, 1900, 0
14, 1800.00000, 13143.6, -1, 0, 1805, 1.02536E-010, -1740.77, 255.411, 64.2349, 19, 172.177, 387.397, 0.964413, 1, 9999, 9999, 9999, 9999, 9999, 9999, 9999, 9999, -1805, 9999, 1900, 0
14, 2700.00000, 13531, -1, 0, 1804.97, 0.013685, -1740.74, 255.409, 64.2357, 19, 172.174, 387.397, 0.964412, 1, 9999, 9999, 9999, 9999, 9999, 9999, 9999, 9999, -1805, 9999, 1900, 0
15, 0.00000, 13918.4, -1, 0, 1805, 0.000100526, -1740.77, 255.411, 64.2349, 19, 172.176, 387.391, 0.964413, 1, 9999, 9999, 9999, 9999, 9999, 9999, 9999, 9999, -1805, 9999, 1900, 0
15, 900.00000, 14305.8, -1, 0, 1805, 8.59946E-007, -1740.77, 255.411, 64.2349, 19, 172.177, 387.397, 0.964413, 1, 9999, 9999, 9999, 9999, 9999, 9999, 9999, 9999, -1805, 9999, 1900, 0
15, 1800.00000, 14693.2, -1, 0, 1662.52, -0.0577111, -1594.84, 244.261, 67.6766, 19, 157.584, 387.397, 0.959293, 1, 9999, 9999, 9999, 9999, 9999, 9999, 9999, 9999, -1662.5, 9999, 1900, 0
15, 2700.00000, 15047.7, -1, 0, 1662.5, -2.35298E-005, -1594.82, 244.259, 67.677, 19, 157.582, 354.565, 0.959292, 1, 9999, 9999, 9999, 9999, 9999, 9999, 9999, 9999, -1662.5, 9999, 1900, 0
16, 0.00000, 15402.3, -1, 0, 1662.5, 1.20822E-007, -1594.82, 244.259, 67.677, 19, 157.582, 354.56, 0.959292, 1, 9999, 9999, 9999, 9999, 9999, 9999, 9999, 9999, -1662.5, 9999, 1900, 0
16, 900.00000, 15756.8, -1, 0, 1662.5, -7.14403E-010, -1594.82, 244.259, 67.677, 19, 157.582, 354.56, 0.959292, 1, 9999, 9999, 9999, 9999, 9999, 9999, 9999, 9999, -1662.5, 9999, 1900, 0
16, 1800.00000, 16111.4, -1, 0, 1662.5, -9.21755E-011, -1594.82, 244.259, 67.677, 19, 157.582, 354.56, 0.959292, 1, 9999, 9999, 9999, 9999, 9999, 9999, 9999, 9999, -1662.5, 9999, 1900, 0
16, 2700.00000, 16466, -1, 0, 997.501, -0.00254434, -933.758, 174.219, 63.7436, 19, 91.4758, 354.56, 0.936097, 1, 9999, 9999, 9999, 9999, 9999, 9999, 9999, 9999, -997.5, 9999, 1900, 0
17, 0.00000, 16671.8, -1, 0, 997.5, 5.61055E-007, -933.756, 174.219, 63.7435, 19, 91.4756, 205.821, 0.936097, 1, 9999, 9999, 9999, 9999, 9999, 9999, 9999, 9999, -997.5, 9999, 1900, 0
17, 900.00000, 16877.6, -1, 0, 997.5, -1.79797E-008, -933.756, 174.219, 63.7435, 19, 91.4756, 205.82, 0.936097, 1, 9999, 9999, 9999, 9999, 9999, 9999, 9999, 9999, -997.5, 9999, 1900, 0
17, 1800.00000, 17083.4, 0, 0, 23.0583, -3.60984E-005, -19, 23.0583, 4.05826, 19, 0, 205.82, 0.824, 1, 9999, 9999, 9999, 9999, 9999, 9999, 9999, 9999, 0, 9999, 1900, 0
17, 2700.00000, 17083.4, 0, 0, 23.0583, -5.19156E-008, -19, 23.0583, 4.05825, 19, 0, 0, 0.824, 1, 9999, 9999, 9999, 9999, 9999, 9999, 9999, 9999, 0, 9999, 1900, 0
18, 0.00000, 17083.4, 0, 0, 23.0583, -4.53649E-010, -19, 23.0583, 4.05825, 19, 0, 0, 0.824, 1, 9999, 9999, 9999, 9999, 9999, 9999, 9999, 9999, 0, 9999, 1900, 0
18, 900.00000, 17083.4, 0, 0, 23.0583, -4.11674E-012, -19, 23.0583, 4.05825, 19, 0, 0, 0.824, 1, 9999, 9999, 9999, 9999, 9999, 9999, 9999, 9999, 0, 9999, 1900, 0
18, 1800.00000, 17083.4, 0, 0, 23.0583, -4.46221E-015, -19, 23.0583, 4.05825, 19, 0, 0, 0.824, 1, 9999, 9999, 9999, 9999, 9999, 9999, 9999, 9999, 0, 9999, 1900, 0
18, 2700.00000, 17083.4, 1, 1092.49, 0, 0.00835677, 1157.37, 214.587, 64.8789, 19, 130.708, 0, 0.943943, 1, 9999, 9999, 9999, 9999, 9999, 9999, 9999, 9999, 1092.5, 9999, 1900, 0
19, 0.00000, 16756.7, 1, 1092.5, 0, 2.7226E-006, 1157.38, 214.588, 64.8791, 19, 130.709, -326.77, 0.943943, 1, 9999, 9999, 9999, 9999, 9999, 9999, 9999, 9999, 1092.5, 9999, 1900, 0
19, 900.00000, 16429.9, 1, 1092.5, 0, 1.52629E-008, 1157.38, 214.588, 64.8791, 19, 130.709, -326.772, 0.943943, 1, 9999, 9999, 9999, 9999, 9999, 9999, 9999, 9999, 1092.5, 9999, 1900, 0
19, 1800.00000, 16103.1, 1, 1425, 0, 0.00375034, 1491.12, 252.918, 66.1262, 19, 167.791, -326.772, 0.955653, 1, 9999, 9999, 9999, 9999, 9999, 9999, 9999, 9999, 1425, 9999, 1900, 0
19, 2700.00000, 15683.6, 1, 1425, 0, 1.51066E-006, 1491.13, 252.918, 66.1262, 19, 167.792, -419.478, 0.955654, 1, 9999, 9999, 9999, 9999, 9999, 9999, 9999, 9999, 1425, 9999, 1900, 0
20, 0.00000, 15264.2, 1, 1425, 0, 2.05976E-008, 1491.13, 252.918, 66.1262, 19, 167.792, -419.479, 0.955654, 1, 9999, 9999, 9999, 9999, 9999, 9999, 9999, 9999, 1425, 9999, 1900, 0
20, 900.00000, 14844.7, 1, 1425, 0, 6.59202E-011, 1491.13, 252.918, 66.1262, 19, 167.792, -419.479, 0.955654, 1, 9999, 9999, 9999, 9999, 9999, 9999, 9999, 9999, 1425, 9999, 1900, 0
20, 1800.00000, 14425.2, 1, 1425, 0, 2.60115E-012, 1491.13, 252.918, 66.1262, 19, 167.792, -419.479, 0.955654, 1, 9999, 9999, 9999, 9999, 9999, 9999, 9999, 9999, 1425, 9999, 1900, 0
20, 2700.00000, 14005.7, 1, 1282.5, 0, 0.000363302, 1349.05, 237.557, 66.5508, 19, 152.006, -419.479, 0.950669, 1, 9999, 9999, 9999, 9999, 9999, 9999, 9999, 9999, 1282.5, 9999, 1900, 0
21, 0.00000, 13625.7, 1, 1282.5, 0, 2.04376E-007, 1349.05, 237.556, 66.5508, 19, 152.006, -380.015, 0.950668, 1, 9999, 9999, 9999, 9999, 9999, 9999, 9999, 9999, 1282.5, 9999, 1900, 0
21, 900.00000, 13245.7, 1, 1282.5, 0, 3.94808E-009, 1349.05, 237.556, 66.5508, 19, 152.006, -380.014, 0.950668, 1, 9999, 9999, 9999, 9999, 9999, 9999, 9999, 9999, 1282.5, 9999, 1900, 0
21, 1800.00000, 12865.7, 1, 1282.5, 0, 1.89775E-011, 1349.05, 237.556, 66.5508, 19, 152.006, -380.014, 0.950668, 1, 9999, 9999, 9999, 9999, 9999, 9999, 9999, 9999, 1282.5, 9999, 1900, 0
21, 2700.00000, 12485.7, 1, 1282.5, 0, 2.27374E-013, 1349.05, 237.556, 66.5508, 19, 152.006, -380.014, 0.950668, 1, 9999, 9999, 9999, 9999, 9999, 9999, 9999, 9999, 1282.5, 9999, 1900, 0
22, 0.00000, 12105.6, 1, 1282.5, 0, -1.28057E-012, 1349.05, 237.556, 66.5508, 19, 152.006, -380.014, 0.950668, 1, 9999, 9999, 9999, 9999, 9999, 9999, 9999, 9999, 1282.5, 9999, 1900, 0
22, 900.00000, 11725.6, 1, 1282.5, 0, -9.49512E-013, 1349.05, 237.556, 66.5508, 19, 152.006, -380.014, 0.950668, 1, 9999, 9999, 9999, 9999, 9999, 9999, 9999, 9999, 1282.5, 9999, 1900, 0
22, 1800.00000, 11345.6, 1, 1282.5, 0, 1.32786E-013, 1349.05, 237.556, 66.5508, 19, 152.006, -380.014, 0.950668, 1, 9999, 9999, 9999, 9999, 9999, 9999, 9999, 9999, 1282.5, 9999, 1900, 0
22, 2700.00000, 10965.6, 1, 1140, 0, 0.000350423, 1205.54, 220.602, 65.5417, 19, 136.061, -380.014, 0.945633, 1, 9999, 9999, 9999, 9999, 9999, 9999, 9999, 9999, 1140, 9999, 1900, 0
23, 0.00000, 10625.5, 1, 1140, 0, 5.83293E-007, 1205.54, 220.602, 65.5416, 19, 136.06, -340.151, 0.945633, 1, 9999, 9999, 9999, 9999, 9999, 9999, 9999, 9999, 1140, 9999, 1900, 0
23, 900.00000, 10285.3, 1, 1140, 0, 6.4699E-009, 1205.54, 220.602, 65.5416, 19, 136.06, -340.15, 0.945633, 1, 9999, 9999, 9999, 9999, 9999, 9999, 9999, 9999, 1140, 9999, 1900, 0
23, 1800.00000, 9945.15, 1, 855.002, 0, 0.0010364, 914.045, 181.714, 59.0427, 19, 103.672, -340.15, 0.935405, 1, 9999, 9999, 9999, 9999, 9999, 9999, 9999, 9999, 855, 9999, 1900, 0
23, 2700.00000, 9685.97, 1, 855, 0, 1.09834E-006, 914.043, 181.714, 59.0426, 19, 103.671, -259.179, 0.935405, 1, 9999, 9999, 9999, 9999, 9999, 9999, 9999, 9999, 855, 9999, 1900, 0
24, 0.00000, 9426.79, 1, 855, 0, 8.67404E-009, 914.043, 181.714, 59.0426, 19, 103.671, -259.178, 0.935405, 1, 9999, 9999, 9999, 9999, 9999, 9999, 9999, 9999, 855, 9999, 1900, 0
24, 900.00000, 9167.61, 1, 855, 0, 3.86754E-011, 914.043, 181.714, 59.0426, 19, 103.671, -259.178, 0.935405, 1, 9999, 9999, 9999, 9999, 9999, 9999, 9999, 9999, 855, 9999, 1900, 0
24, 1800.00000, 8908.44, 1, 855, 0, 7.89441E-013, 914.043, 181.714, 59.0426, 19, 103.671, -259.178, 0.935405, 1, 9999, 9999, 9999, 9999, 9999, 9999, 9999, 9999, 855, 9999, 1900, 0
24, 2700.00000, 8649.26, 1, 474.997, 0, 0.00112548, 521.312, 125.35, 46.3153, 19, 60.0347, -259.178, 0.911156, 1, 9999, 9999, 9999, 9999, 9999, 9999, 9999, 9999, 475, 9999, 1900, 0
25, 0.00000, 8499.17, 1, 475, 0, -8.82564E-007, 521.315, 125.351, 46.3155, 19, 60.0351, -150.087, 0.911156, 1, 9999, 9999, 9999, 9999, 9999, 9999, 9999, 9999, 475, 9999, 1900, 0
25, 900.00000, 8349.08, 1, 475, 0, -2.28144E-009, 521.315, 125.351, 46.3155, 19, 60.0351, -150.088, 0.911156, 1, 9999, 9999, 9999, 9999, 9999, 9999, 9999, 9999, 475, 9999, 1900, 0
25, 1800.00000, 8199, 1, 474.999, 0, 0.000741306, 521.314, 125.35, 46.3154, 19, 60.0349, -150.088, 0.911156, 1, 9999, 9999, 9999, 9999, 9999, 9999, 9999, 9999, 475, 9999, 1900, 0
25, 2700.00000, 8048.91, 1, 475, 0, -5.10025E-007, 521.315, 125.351, 46.3155, 19, 60.0351, -150.087, 0.911156, 1, 9999, 9999, 9999, 9999, 9999, 9999, 9999, 9999, 475, 9999, 1900, 0
26, 0.00000, 7898.82, 1, 475, 0, 3.60766E-009, 521.315, 125.351, 46.3155, 19, 60.0351, -150.088, 0.911156, 1, 9999, 9999, 9999, 9999, 9999, 9999, 9999, 9999, 475, 9999, 1900, 0
26, 900.00000, 7748.73, 1, 475, 0, -3.08037E-011, 521.315, 125.351, 46.3155, 19, 60.0351, -150.088, 0.911156, 1, 9999, 9999, 9999, 9999, 9999, 9999, 9999, 9999, 475, 9999, 1900, 0
26, 1800.00000, 7598.65, 1, 475, 0, 1.56433E-013, 521.315, 125.351, 46.3155, 19, 60.0351, -150.088, 0.911156, 1, 9999, 9999, 9999, 9999, 9999, 9999, 9999, 9999, 475, 9999, 1900, 0
26, 2700.00000, 7448.56, 1, 332.476, 0, 0.0153113, 370.261, 100.036, 37.7852, 19, 43.2512, -150.088, 0.89795, 1, 9999, 9999, 9999, 9999, 9999, 9999, 9999, 9999, 332.5, 9999, 1900, 0
27, 0.00000, 7340.43, 1, 332.5, 0, -1.18641E-005, 370.286, 100.04, 37.7859, 19, 43.254, -108.128, 0.897955, 1, 9999, 9999, 9999, 9999, 9999, 9999, 9999, 9999, 332.5, 9999, 1900, 0
27, 900.00000, 7232.29, 1, 332.5, 0, 1.35045E-008, 370.286, 100.04, 37.7859, 19, 43.254, -108.135, 0.897955, 1, 9999, 9999, 9999, 9999, 9999, 9999, 9999, 9999, 332.5, 9999, 1900, 0
27, 1800.00000, 7124.16, 1, 237.496, 0, 0.00390497, 270.802, 84.5059, 33.3057, 19, 32.2002, -108.135, 0.877011, 1, 9999, 9999, 9999, 9999, 9999, 9999, 9999, 9999, 237.5, 9999, 1900, 0
